(1693900872.844098) can0 601##41ADA03FE04004817315C1702162D2023BAD20000
(1693900872.844098) can0 601##41ADA03FE04004817315C1702162D2023BAD20000
(1693900872.844099) can0 101##41A0A160000000000
(1693900872.844099) can0 101##41A0A160000000000
(1693900872.860637) can0 303##40700FF00FFFF01000FFF000FFFFF000000000000
(1693900872.860637) can0 303##40700FF00FFFF01000FFF000FFFFF000000000000
(1693900872.890227) can0 010##4AD020040067879
(1693900872.890227) can0 010##4AD020040067879
(1693900872.894227) can0 601##41BDA03FE04003E17315C1702162D2023BAD20000
(1693900872.894227) can0 601##41BDA03FE04003E17315C1702162D2023BAD20000
(1693900872.894228) can0 101##41B0A160000000000
(1693900872.894228) can0 101##41B0A160000000000
(1693900872.910548) can0 303##40800FF00FFFF01000FFF000FFFFF000000000000
(1693900872.910548) can0 303##40800FF00FFFF01000FFF000FFFFF000000000000
(1693900872.937787) can0 010##4AE02004006A0FB
(1693900872.937787) can0 010##4AE02004006A0FB
(1693900872.944058) can0 601##41CDA03FE04004817315C1702162D2123C4D20000
(1693900872.944058) can0 601##41CDA03FE04004817315C1702162D2123C4D20000
(1693900872.944059) can0 101##41C0A160000000000
(1693900872.944059) can0 101##41C0A160000000000
(1693900872.944059) can0 201##4380A01
(1693900872.944059) can0 201##4380A01
(1693900872.960511) can0 303##40900FF00FFFF01000FFF000FFFFF000000000000
(1693900872.960511) can0 303##40900FF00FFFF01000FFF000FFFFF000000000000
(1693900872.988073) can0 010##4AF02004006189A
(1693900872.988073) can0 010##4AF02004006189A
(1693900872.994089) can0 601##41DDA03FE04003E17317A1702162D2123BAD20000
(1693900872.994089) can0 601##41DDA03FE04003E17317A1702162D2123BAD20000
(1693900872.994092) can0 101##41D0A160000000000
(1693900872.994092) can0 101##41D0A160000000000
(1693900873.010690) can0 303##40A00FF00FFFF01000FFF000FFFFF000000000000
(1693900873.010690) can0 303##40A00FF00FFFF01000FFF000FFFFF000000000000
(1693900873.034967) can0 010##4B002004006A508
(1693900873.034967) can0 010##4B002004006A508
(1693900873.044018) can0 601##41EDA03FE04005217317A1702162D2123C4D20000
(1693900873.044018) can0 601##41EDA03FE04005217317A1702162D2123C4D20000
(1693900873.044019) can0 101##41E0A160000000000
(1693900873.044019) can0 101##41E0A160000000000
(1693900873.060607) can0 303##40B00FF00FFFF01000FFF000FFFFF000000000000
(1693900873.060607) can0 303##40B00FF00FFFF01000FFF000FFFFF000000000000
(1693900873.085906) can0 010##4B1020040061D69
(1693900873.085906) can0 010##4B1020040061D69
(1693900873.094503) can0 601##41FDA03FE04003E17317A1702162D2123C4D20000
(1693900873.094503) can0 601##41FDA03FE04003E17317A1702162D2123C4D20000
(1693900873.094504) can0 101##41F0A160000000000
(1693900873.094504) can0 101##41F0A160000000000
(1693900873.110719) can0 303##40C00FF00FFFF01000FFF000FFFFF000000000000
(1693900873.110719) can0 303##40C00FF00FFFF01000FFF000FFFFF000000000000
(1693900873.135883) can0 010##4B202004006C5EB
(1693900873.135883) can0 010##4B202004006C5EB
(1693900873.144597) can0 601##420DA03FE04003E17317A1702162D2123C4D20000
(1693900873.144597) can0 601##420DA03FE04003E17317A1702162D2123C4D20000
(1693900873.144598) can0 101##4200A160000000000
(1693900873.144598) can0 101##4200A160000000000
(1693900873.160647) can0 303##40D00FF00FFFF01000FFF000FFFFF000000000000
(1693900873.160647) can0 303##40D00FF00FFFF01000FFF000FFFFF000000000000
(1693900873.187947) can0 010##4B3020040067D8A
(1693900873.187947) can0 010##4B3020040067D8A
(1693900873.194647) can0 601##421DA03FE04003E1731661702162D2123C4D20000
(1693900873.194647) can0 601##421DA03FE04003E1731661702162D2123C4D20000
(1693900873.194649) can0 101##4210A160000000000
(1693900873.194649) can0 101##4210A160000000000
(1693900873.194650) can0 201##4390A01
(1693900873.194650) can0 201##4390A01
(1693900873.210689) can0 303##40E00FF00FFFF01000FFF000FFFFF000000000000
(1693900873.210689) can0 303##40E00FF00FFFF01000FFF000FFFFF000000000000
(1693900873.235349) can0 010##4B40200400664CE
(1693900873.235349) can0 010##4B40200400664CE
(1693900873.244580) can0 601##422DA03FE04003E17317A1702162D2123BAD20000
(1693900873.244580) can0 601##422DA03FE04003E17317A1702162D2123BAD20000
(1693900873.244582) can0 101##4220A160000000000
(1693900873.244582) can0 101##4220A160000000000
(1693900873.260713) can0 303##40F00FF00FFFF01000FFF000FFFFF000000000000
(1693900873.260713) can0 303##40F00FF00FFFF01000FFF000FFFFF000000000000
(1693900873.290793) can0 010##4B502004006DCAF
(1693900873.290793) can0 010##4B502004006DCAF
(1693900873.294128) can0 601##423DA03FE0400521731701702162D2123C4D20000
(1693900873.294128) can0 601##423DA03FE0400521731701702162D2123C4D20000
(1693900873.294129) can0 101##4230A160000000000
(1693900873.294129) can0 101##4230A160000000000
(1693900873.310721) can0 303##41000FF00FFFF01000FFF000FFFFF000000000000
(1693900873.310721) can0 303##41000FF00FFFF01000FFF000FFFFF000000000000
(1693900873.335335) can0 010##4B602004006042D
(1693900873.335335) can0 010##4B602004006042D
(1693900873.344633) can0 601##424DA03FE04003E1731AC1702162D2123C4D20000
(1693900873.344633) can0 601##424DA03FE04003E1731AC1702162D2123C4D20000
(1693900873.344634) can0 101##4240A160000000000
(1693900873.344634) can0 101##4240A160000000000
(1693900873.360590) can0 303##41100FF00FFFF01000FFF000FFFFF000000000000
(1693900873.360590) can0 303##41100FF00FFFF01000FFF000FFFFF000000000000
(1693900873.385400) can0 010##4B702004006BC4C
(1693900873.385400) can0 010##4B702004006BC4C
(1693900873.394651) can0 601##425DA03FE04003E17317A1702162D2123C4D20000
(1693900873.394651) can0 601##425DA03FE04003E17317A1702162D2123C4D20000
(1693900873.394652) can0 101##4250A160000000000
(1693900873.394652) can0 101##4250A160000000000
(1693900873.410533) can0 303##41200FF00FFFF01000FFF000FFFFF000000000000
(1693900873.410533) can0 303##41200FF00FFFF01000FFF000FFFFF000000000000
(1693900873.440278) can0 010##4B80200400636A5
(1693900873.440278) can0 010##4B80200400636A5
(1693900873.444172) can0 601##426DA03FE04005C1731981702162D2123C4D20000
(1693900873.444172) can0 601##426DA03FE04005C1731981702162D2123C4D20000
(1693900873.444173) can0 101##4260A160000000000
(1693900873.444173) can0 101##4260A160000000000
(1693900873.444173) can0 201##43A0A01
(1693900873.444173) can0 201##43A0A01
(1693900873.460636) can0 303##41300FF00FFFF01000FFF000FFFFF000000000000
(1693900873.460636) can0 303##41300FF00FFFF01000FFF000FFFFF000000000000
(1693900873.485990) can0 010##4B9020040068EC4
(1693900873.485990) can0 010##4B9020040068EC4
(1693900873.494168) can0 601##427DA03FE04003E1731841702162D2123BAD20000
(1693900873.494168) can0 601##427DA03FE04003E1731841702162D2123BAD20000
(1693900873.494169) can0 101##4270A160000000000
(1693900873.494169) can0 101##4270A160000000000
(1693900873.510654) can0 303##41400FF00FFFF01000FFF000FFFFF000000000000
(1693900873.510654) can0 303##41400FF00FFFF01000FFF000FFFFF000000000000
(1693900873.540190) can0 010##4BA020040065646
(1693900873.540190) can0 010##4BA020040065646
(1693900873.544113) can0 601##428DA03FE04003E17317A1702162D2123C4D20000
(1693900873.544113) can0 601##428DA03FE04003E17317A1702162D2123C4D20000
(1693900873.544114) can0 101##4280A160000000000
(1693900873.544114) can0 101##4280A160000000000
(1693900873.560662) can0 303##41500FF00FFFF01000FFF000FFFFF000000000000
(1693900873.560662) can0 303##41500FF00FFFF01000FFF000FFFFF000000000000
(1693900873.585577) can0 010##4BB02004006EE27
(1693900873.585577) can0 010##4BB02004006EE27
(1693900873.594585) can0 601##429DA03FE04003E17317A1702162D2123C4D20000
(1693900873.594585) can0 601##429DA03FE04003E17317A1702162D2123C4D20000
(1693900873.594586) can0 101##4290A160000000000
(1693900873.594586) can0 101##4290A160000000000
(1693900873.610699) can0 303##41600FF00FFFF01000FFF000FFFFF000000000000
(1693900873.610699) can0 303##41600FF00FFFF01000FFF000FFFFF000000000000
(1693900873.635457) can0 010##4BC02004006F763
(1693900873.635457) can0 010##4BC02004006F763
(1693900873.644573) can0 601##42ADA03FE04003E17318E1702162D2123BAD20000
(1693900873.644573) can0 601##42ADA03FE04003E17318E1702162D2123BAD20000
(1693900873.644575) can0 101##42A0A160000000000
(1693900873.644575) can0 101##42A0A160000000000
(1693900873.660633) can0 303##41700FF00FFFF01000FFF000FFFFF000000000000
(1693900873.660633) can0 303##41700FF00FFFF01000FFF000FFFFF000000000000
(1693900873.685620) can0 010##4BD020040064F02
(1693900873.685620) can0 010##4BD020040064F02
(1693900873.694127) can0 601##42BDA03FE04003E17317A1702162D2123BAD20000
(1693900873.694127) can0 601##42BDA03FE04003E17317A1702162D2123BAD20000
(1693900873.694128) can0 101##42B0A160000000000
(1693900873.694128) can0 101##42B0A160000000000
(1693900873.694128) can0 201##43B0A01
(1693900873.694128) can0 201##43B0A01
(1693900873.710517) can0 303##41800FF00FFFF01000FFF000FFFFF000000000000
(1693900873.710517) can0 303##41800FF00FFFF01000FFF000FFFFF000000000000
(1693900873.735417) can0 010##4BE020040069780
(1693900873.735417) can0 010##4BE020040069780
(1693900873.744295) can0 601##42CDA03FE04003E17317A1702162D2123C4D20000
(1693900873.744295) can0 601##42CDA03FE04003E17317A1702162D2123C4D20000
(1693900873.744296) can0 101##42C0A160000000000
(1693900873.744296) can0 101##42C0A160000000000
(1693900873.760642) can0 303##41900FF00FFFF01000FFF000FFFFF000000000000
(1693900873.760642) can0 303##41900FF00FFFF01000FFF000FFFFF000000000000
(1693900873.788664) can0 010##4BF020040062FE1
(1693900873.788664) can0 010##4BF020040062FE1
(1693900873.794299) can0 601##42DDA03FE04003E17318E1702162D2123BAD20000
(1693900873.794299) can0 601##42DDA03FE04003E17318E1702162D2123BAD20000
(1693900873.794300) can0 101##42D0A160000000000
(1693900873.794300) can0 101##42D0A160000000000
(1693900873.810654) can0 303##41A00FF00FFFF01000FFF000FFFFF000000000000
(1693900873.810654) can0 303##41A00FF00FFFF01000FFF000FFFFF000000000000
(1693900873.810655) can0 202##5CF0A0DAC090DAA00000019000E000001
(1693900873.810655) can0 202##5CF0A0DAC090DAA00000019000E000001
(1693900873.835352) can0 010##4C0020040062169
(1693900873.835352) can0 010##4C0020040062169
(1693900873.844619) can0 601##42EDA03FE04003E17315C1702162D2123BAD20000
(1693900873.844619) can0 601##42EDA03FE04003E17315C1702162D2123BAD20000
(1693900873.844620) can0 101##42E0A160000000000
(1693900873.844620) can0 101##42E0A160000000000
(1693900873.860645) can0 303##41B00FF00FFFF01000FFF000FFFFF000000000000
(1693900873.860645) can0 303##41B00FF00FFFF01000FFF000FFFFF000000000000
(1693900873.887282) can0 010##4C1020040069908
(1693900873.887282) can0 010##4C1020040069908
(1693900873.894274) can0 601##42FDA03FE04003E17317A1702162D2123C4D20000
(1693900873.894274) can0 601##42FDA03FE04003E17317A1702162D2123C4D20000
(1693900873.894276) can0 101##42F0A160000000000
(1693900873.894276) can0 101##42F0A160000000000
(1693900873.910642) can0 303##41C00FF00FFFF01000FFF000FFFFF000000000000
(1693900873.910642) can0 303##41C00FF00FFFF01000FFF000FFFFF000000000000
(1693900873.935494) can0 010##4C202004006418A
(1693900873.935494) can0 010##4C202004006418A
(1693900873.944321) can0 601##430DA03FE04003E1731AC1702162D2123C4D20000
(1693900873.944321) can0 601##430DA03FE04003E1731AC1702162D2123C4D20000
(1693900873.944322) can0 101##4300A160000000000
(1693900873.944322) can0 101##4300A160000000000
(1693900873.944323) can0 201##43C0A01
(1693900873.944323) can0 201##43C0A01
(1693900873.960646) can0 303##41D00FF00FFFF01000FFF000FFFFF000000000000
(1693900873.960646) can0 303##41D00FF00FFFF01000FFF000FFFFF000000000000
(1693900873.987196) can0 010##4C302004006F9EB
(1693900873.987196) can0 010##4C302004006F9EB
(1693900873.994705) can0 601##431DA03FE04005217318E1702162D2123BAD20000
(1693900873.994705) can0 601##431DA03FE04005217318E1702162D2123BAD20000
(1693900873.994706) can0 101##4310A160000000000
(1693900873.994706) can0 101##4310A160000000000
(1693900874.010673) can0 303##41E00FF00FFFF01000FFF000FFFFF000000000000
(1693900874.010673) can0 303##41E00FF00FFFF01000FFF000FFFFF000000000000
(1693900874.035766) can0 010##4C402004006E0AF
(1693900874.035766) can0 010##4C402004006E0AF
(1693900874.044605) can0 601##432DA03FE04003E1731701702162D2123BAD20000
(1693900874.044605) can0 601##432DA03FE04003E1731701702162D2123BAD20000
(1693900874.044607) can0 101##4320A160000000000
(1693900874.044607) can0 101##4320A160000000000
(1693900874.060647) can0 303##41F00FF00FFFF01000FFF000FFFFF000000000000
(1693900874.060647) can0 303##41F00FF00FFFF01000FFF000FFFFF000000000000
(1693900874.085857) can0 010##4C50200400658CE
(1693900874.085857) can0 010##4C50200400658CE
(1693900874.094249) can0 601##433DA03FE04003E1731701702162D2123BAD20000
(1693900874.094249) can0 601##433DA03FE04003E1731701702162D2123BAD20000
(1693900874.094250) can0 101##4330A160000000000
(1693900874.094250) can0 101##4330A160000000000
(1693900874.110690) can0 303##42000FF00FFFF01000FFF000FFFFF000000000000
(1693900874.110690) can0 303##42000FF00FFFF01000FFF000FFFFF000000000000
(1693900874.135626) can0 010##4C602004006804C
(1693900874.135626) can0 010##4C602004006804C
(1693900874.144630) can0 601##434DA03FE04005217317A1702162D2123BAD20000
(1693900874.144630) can0 601##434DA03FE04005217317A1702162D2123BAD20000
(1693900874.144631) can0 101##4340A160000000000
(1693900874.144631) can0 101##4340A160000000000
(1693900874.160659) can0 303##42100FF00FFFF01000FFF000FFFFF000000000000
(1693900874.160659) can0 303##42100FF00FFFF01000FFF000FFFFF000000000000
(1693900874.186497) can0 010##4C702004006382D
(1693900874.186497) can0 010##4C702004006382D
(1693900874.194704) can0 601##435DA03FE04003E1731661702162D2123BAD20000
(1693900874.194704) can0 601##435DA03FE04003E1731661702162D2123BAD20000
(1693900874.194706) can0 101##4350A160000000000
(1693900874.194706) can0 101##4350A160000000000
(1693900874.194707) can0 201##43D0A01
(1693900874.194707) can0 201##43D0A01
(1693900874.210637) can0 303##42200FF00FFFF01000FFF000FFFFF000000000000
(1693900874.210637) can0 303##42200FF00FFFF01000FFF000FFFFF000000000000
(1693900874.235375) can0 010##4C802004006B2C4
(1693900874.235375) can0 010##4C802004006B2C4
(1693900874.244268) can0 601##436DA03FE04003E17317A1702162E2123BAD20000
(1693900874.244268) can0 601##436DA03FE04003E17317A1702162E2123BAD20000
(1693900874.244269) can0 101##4360A160000000000
(1693900874.244269) can0 101##4360A160000000000
(1693900874.260637) can0 303##42300FF00FFFF01000FFF000FFFFF000000000000
(1693900874.260637) can0 303##42300FF00FFFF01000FFF000FFFFF000000000000
(1693900874.288949) can0 010##4C9020040060AA5
(1693900874.288949) can0 010##4C9020040060AA5
(1693900874.294672) can0 601##437DA03FE04003E17317A1702162E2123BAD20000
(1693900874.294672) can0 601##437DA03FE04003E17317A1702162E2123BAD20000
(1693900874.294673) can0 101##4370A160000000000
(1693900874.294673) can0 101##4370A160000000000
(1693900874.310672) can0 303##42400FF00FFFF01000FFF000FFFFF000000000000
(1693900874.310672) can0 303##42400FF00FFFF01000FFF000FFFFF000000000000
(1693900874.335842) can0 010##4CA02004006D227
(1693900874.335842) can0 010##4CA02004006D227
(1693900874.344559) can0 601##438DA03FE04003E17317A1702162E2123C4D20000
(1693900874.344559) can0 601##438DA03FE04003E17317A1702162E2123C4D20000
(1693900874.344561) can0 101##4380A160000000000
(1693900874.344561) can0 101##4380A160000000000
(1693900874.360676) can0 303##42500FF00FFFF01000FFF000FFFFF000000000000
(1693900874.360676) can0 303##42500FF00FFFF01000FFF000FFFFF000000000000
(1693900874.385852) can0 010##4CB020040066A46
(1693900874.385852) can0 010##4CB020040066A46
(1693900874.394271) can0 601##439DA03FE04003E17317A1702162E2123C4D20000
(1693900874.394271) can0 601##439DA03FE04003E17317A1702162E2123C4D20000
(1693900874.394272) can0 101##4390A160000000000
(1693900874.394272) can0 101##4390A160000000000
(1693900874.410677) can0 303##42600FF00FFFF01000FFF000FFFFF000000000000
(1693900874.410677) can0 303##42600FF00FFFF01000FFF000FFFFF000000000000
(1693900874.440179) can0 010##4CC020040067302
(1693900874.440179) can0 010##4CC020040067302
(1693900874.444232) can0 601##43ADA03FE04003E17317A1702162E2123BAD20000
(1693900874.444232) can0 601##43ADA03FE04003E17317A1702162E2123BAD20000
(1693900874.444233) can0 101##43A0A160000000000
(1693900874.444233) can0 101##43A0A160000000000
(1693900874.444234) can0 201##43E0A01
(1693900874.444234) can0 201##43E0A01
(1693900874.460652) can0 303##42700FF00FFFF01000FFF000FFFFF000000000000
(1693900874.460652) can0 303##42700FF00FFFF01000FFF000FFFFF000000000000
(1693900874.488965) can0 010##4CD02004006CB63
(1693900874.488965) can0 010##4CD02004006CB63
(1693900874.494255) can0 601##43BDA03FE04003E17317A1702162E2123BAD20000
(1693900874.494255) can0 601##43BDA03FE04003E17317A1702162E2123BAD20000
(1693900874.494256) can0 101##43B0A160000000000
(1693900874.494256) can0 101##43B0A160000000000
(1693900874.510658) can0 303##42800FF00FFFF01000FFF000FFFFF000000000000
(1693900874.510658) can0 303##42800FF00FFFF01000FFF000FFFFF000000000000
(1693900874.535712) can0 010##4CE0200400613E1
(1693900874.535712) can0 010##4CE0200400613E1
(1693900874.544256) can0 601##43CDA03FE04003E1731661702162E2123C4D20000
(1693900874.544256) can0 601##43CDA03FE04003E1731661702162E2123C4D20000
(1693900874.544257) can0 101##43C0A160000000000
(1693900874.544257) can0 101##43C0A160000000000
(1693900874.560635) can0 303##42900FF00FFFF01000FFF000FFFFF000000000000
(1693900874.560635) can0 303##42900FF00FFFF01000FFF000FFFFF000000000000
(1693900874.588723) can0 010##4CF02004006AB80
(1693900874.588723) can0 010##4CF02004006AB80
(1693900874.594269) can0 601##43DDA03FE04003E1731661702162E2123C4D20000
(1693900874.594269) can0 601##43DDA03FE04003E1731661702162E2123C4D20000
(1693900874.594270) can0 101##43D0A160000000000
(1693900874.594270) can0 101##43D0A160000000000
(1693900874.610652) can0 303##42A00FF00FFFF01000FFF000FFFFF000000000000
(1693900874.610652) can0 303##42A00FF00FFFF01000FFF000FFFFF000000000000
(1693900874.637445) can0 010##4D0020040061612
(1693900874.637445) can0 010##4D0020040061612
(1693900874.644287) can0 601##43EDA03FE04003E17317A1702162E2123BAD20000
(1693900874.644287) can0 601##43EDA03FE04003E17317A1702162E2123BAD20000
(1693900874.644288) can0 101##43E0A160000000000
(1693900874.644288) can0 101##43E0A160000000000
(1693900874.660685) can0 303##42B00FF00FFFF01000FFF000FFFFF000000000000
(1693900874.660685) can0 303##42B00FF00FFFF01000FFF000FFFFF000000000000
(1693900874.686424) can0 010##4D102004006AE73
(1693900874.686424) can0 010##4D102004006AE73
(1693900874.694300) can0 601##43FDA03FE04004817317A1702162E2123BAD20000
(1693900874.694300) can0 601##43FDA03FE04004817317A1702162E2123BAD20000
(1693900874.694301) can0 101##43F0A160000000000
(1693900874.694301) can0 101##43F0A160000000000
(1693900874.694301) can0 201##43F0A01
(1693900874.694301) can0 201##43F0A01
(1693900874.710695) can0 303##42C00FF00FFFF01000FFF000FFFFF000000000000
(1693900874.710695) can0 303##42C00FF00FFFF01000FFF000FFFFF000000000000
(1693900874.736609) can0 010##4D20200400676F1
(1693900874.736609) can0 010##4D20200400676F1
(1693900874.744287) can0 601##440DA03FE04003E17317A1702162E2123C4D20000
(1693900874.744287) can0 601##440DA03FE04003E17317A1702162E2123C4D20000
(1693900874.744288) can0 101##4400A160000000000
(1693900874.744288) can0 101##4400A160000000000
(1693900874.760710) can0 303##42D00FF00FFFF01000FFF000FFFFF000000000000
(1693900874.760710) can0 303##42D00FF00FFFF01000FFF000FFFFF000000000000
(1693900874.786494) can0 010##4D302004006CE90
(1693900874.786494) can0 010##4D302004006CE90
(1693900874.794311) can0 601##441DA03FE04003E17317A1702162E2123C4D20000
(1693900874.794311) can0 601##441DA03FE04003E17317A1702162E2123C4D20000
(1693900874.794312) can0 101##4410A160000000000
(1693900874.794312) can0 101##4410A160000000000
(1693900874.810686) can0 303##42E00FF00FFFF01000FFF000FFFFF000000000000
(1693900874.810686) can0 303##42E00FF00FFFF01000FFF000FFFFF000000000000
(1693900874.811766) can0 202##5D00A0DAC0A0DB600000019000E000001
(1693900874.811766) can0 202##5D00A0DAC0A0DB600000019000E000001
(1693900874.837259) can0 010##4D402004006D7D4
(1693900874.837259) can0 010##4D402004006D7D4
(1693900874.844266) can0 601##442DA03FE04005217317A1702162E2123C4D20000
(1693900874.844266) can0 601##442DA03FE04005217317A1702162E2123C4D20000
(1693900874.844267) can0 101##4420A160000000000
(1693900874.844267) can0 101##4420A160000000000
(1693900874.860701) can0 303##42F00FF00FFFF01000FFF000FFFFF000000000000
(1693900874.860701) can0 303##42F00FF00FFFF01000FFF000FFFFF000000000000
(1693900874.886901) can0 010##4D5020040066FB5
(1693900874.886901) can0 010##4D5020040066FB5
(1693900874.894325) can0 601##443DA03FE04003E17317A1702162E2123BAD20000
(1693900874.894325) can0 601##443DA03FE04003E17317A1702162E2123BAD20000
(1693900874.894325) can0 101##4430A160000000000
(1693900874.894325) can0 101##4430A160000000000
(1693900874.910684) can0 303##43000FF00FFFF01000FFF000FFFFF000000000000
(1693900874.910684) can0 303##43000FF00FFFF01000FFF000FFFFF000000000000
(1693900874.935664) can0 010##4D602004006B737
(1693900874.935664) can0 010##4D602004006B737
(1693900874.944195) can0 601##444DA03FE04003E17315C1702162E2123C4D20000
(1693900874.944195) can0 601##444DA03FE04003E17315C1702162E2123C4D20000
(1693900874.944198) can0 101##4440A160000000000
(1693900874.944198) can0 101##4440A160000000000
(1693900874.944200) can0 201##4400A01
(1693900874.944200) can0 201##4400A01
(1693900874.960610) can0 303##43100FF00FFFF01000FFF000FFFFF000000000000
(1693900874.960610) can0 303##43100FF00FFFF01000FFF000FFFFF000000000000
(1693900874.985522) can0 010##4D7020040060F56
(1693900874.985522) can0 010##4D7020040060F56
(1693900874.994311) can0 601##445DA03FE04003E17317A1702162E2123C4D20000
(1693900874.994311) can0 601##445DA03FE04003E17317A1702162E2123C4D20000
(1693900874.994312) can0 101##4450A160000000000
(1693900874.994312) can0 101##4450A160000000000
(1693900875.010644) can0 303##43200FF00FFFF01000FFF000FFFFF000000000000
(1693900875.010644) can0 303##43200FF00FFFF01000FFF000FFFFF000000000000
(1693900875.035925) can0 010##4D80200400685BF
(1693900875.035925) can0 010##4D80200400685BF
(1693900875.044323) can0 601##446DA03FE04003E17317A1702162E2123BAD20000
(1693900875.044323) can0 601##446DA03FE04003E17317A1702162E2123BAD20000
(1693900875.044323) can0 101##4460A160000000000
(1693900875.044323) can0 101##4460A160000000000
(1693900875.060754) can0 303##43300FF00FFFF01000FFF000FFFFF000000000000
(1693900875.060754) can0 303##43300FF00FFFF01000FFF000FFFFF000000000000
(1693900875.088640) can0 010##4D9020040063DDE
(1693900875.088640) can0 010##4D9020040063DDE
(1693900875.094404) can0 601##447DA03FE04003E17317A1702162E2123BAD20000
(1693900875.094404) can0 601##447DA03FE04003E17317A1702162E2123BAD20000
(1693900875.094405) can0 101##4470A160000000000
(1693900875.094405) can0 101##4470A160000000000
(1693900875.110725) can0 303##43400FF00FFFF01000FFF000FFFFF000000000000
(1693900875.110725) can0 303##43400FF00FFFF01000FFF000FFFFF000000000000
(1693900875.135803) can0 010##4DA02004006E55C
(1693900875.135803) can0 010##4DA02004006E55C
(1693900875.144422) can0 601##448DA03FE04003E1731A21702162E2123C4D20000
(1693900875.144422) can0 601##448DA03FE04003E1731A21702162E2123C4D20000
(1693900875.144423) can0 101##4480A160000000000
(1693900875.144423) can0 101##4480A160000000000
(1693900875.160682) can0 303##43500FF00FFFF01000FFF000FFFFF000000000000
(1693900875.160682) can0 303##43500FF00FFFF01000FFF000FFFFF000000000000
(1693900875.190645) can0 010##4DB020040065D3D
(1693900875.190645) can0 010##4DB020040065D3D
(1693900875.194437) can0 601##449DA03FE04003E17317A1702162E2123C4D20000
(1693900875.194437) can0 601##449DA03FE04003E17317A1702162E2123C4D20000
(1693900875.194438) can0 101##4490A160000000000
(1693900875.194438) can0 101##4490A160000000000
(1693900875.194438) can0 201##4410A01
(1693900875.194438) can0 201##4410A01
(1693900875.210701) can0 303##43600FF00FFFF01000FFF000FFFFF000000000000
(1693900875.210701) can0 303##43600FF00FFFF01000FFF000FFFFF000000000000
(1693900875.241103) can0 010##4DC020040064479
(1693900875.241103) can0 010##4DC020040064479
(1693900875.244424) can0 601##44ADA03FE04003E1731701702162E2123C4D20000
(1693900875.244424) can0 601##44ADA03FE04003E1731701702162E2123C4D20000
(1693900875.244425) can0 101##44A0A160000000000
(1693900875.244425) can0 101##44A0A160000000000
(1693900875.260706) can0 303##43700FF00FFFF01000FFF000FFFFF000000000000
(1693900875.260706) can0 303##43700FF00FFFF01000FFF000FFFFF000000000000
(1693900875.285696) can0 010##4DD02004006FC18
(1693900875.285696) can0 010##4DD02004006FC18
(1693900875.294327) can0 601##44BDA03FE0400521731A21702162E2124BAD20000
(1693900875.294327) can0 601##44BDA03FE0400521731A21702162E2124BAD20000
(1693900875.294328) can0 101##44B0A160000000000
(1693900875.294328) can0 101##44B0A160000000000
(1693900875.310580) can0 303##43800FF00FFFF01000FFF000FFFFF000000000000
(1693900875.310580) can0 303##43800FF00FFFF01000FFF000FFFFF000000000000
(1693900875.336225) can0 010##4DE02004006249A
(1693900875.336225) can0 010##4DE02004006249A
(1693900875.344231) can0 601##44CDA03FE04003E17318E1702162E2124BAD20000
(1693900875.344231) can0 601##44CDA03FE04003E17318E1702162E2124BAD20000
(1693900875.344232) can0 101##44C0A160000000000
(1693900875.344232) can0 101##44C0A160000000000
(1693900875.360535) can0 303##43900FF00FFFF01000FFF000FFFFF000000000000
(1693900875.360535) can0 303##43900FF00FFFF01000FFF000FFFFF000000000000
(1693900875.385967) can0 010##4DF020040069CFB
(1693900875.385967) can0 010##4DF020040069CFB
(1693900875.394488) can0 601##44DDA03FE04003E17317A1702162E2124C4D20000
(1693900875.394488) can0 601##44DDA03FE04003E17317A1702162E2124C4D20000
(1693900875.394489) can0 101##44D0A160000000000
(1693900875.394489) can0 101##44D0A160000000000
(1693900875.410661) can0 303##43A00FF00FFFF01000FFF000FFFFF000000000000
(1693900875.410661) can0 303##43A00FF00FFFF01000FFF000FFFFF000000000000
(1693900875.435925) can0 010##4E0020040064F9F
(1693900875.435925) can0 010##4E0020040064F9F
(1693900875.444320) can0 601##44EDA03FE04003E17317A1702162E2124C4D20000
(1693900875.444320) can0 601##44EDA03FE04003E17317A1702162E2124C4D20000
(1693900875.444320) can0 101##44E0A160000000000
(1693900875.444320) can0 101##44E0A160000000000
(1693900875.444321) can0 201##4420A01
(1693900875.444321) can0 201##4420A01
(1693900875.460608) can0 303##43B00FF00FFFF01000FFF000FFFFF000000000000
(1693900875.460608) can0 303##43B00FF00FFFF01000FFF000FFFFF000000000000
(1693900875.485851) can0 010##4E102004006F7FE
(1693900875.485851) can0 010##4E102004006F7FE
(1693900875.494411) can0 601##44FDA03FE04004817317A1702162E2124BAD20000
(1693900875.494411) can0 601##44FDA03FE04004817317A1702162E2124BAD20000
(1693900875.494412) can0 101##44F0A160000000000
(1693900875.494412) can0 101##44F0A160000000000
(1693900875.510672) can0 303##43C00FF00FFFF01000FFF000FFFFF000000000000
(1693900875.510672) can0 303##43C00FF00FFFF01000FFF000FFFFF000000000000
(1693900875.536500) can0 010##4E2020040062F7C
(1693900875.536500) can0 010##4E2020040062F7C
(1693900875.544391) can0 601##450DA03FE04003E1731701702162E2124C4D20000
(1693900875.544391) can0 601##450DA03FE04003E1731701702162E2124C4D20000
(1693900875.544392) can0 101##4500A160000000000
(1693900875.544392) can0 101##4500A160000000000
(1693900875.560657) can0 303##43D00FF00FFFF01000FFF000FFFFF000000000000
(1693900875.560657) can0 303##43D00FF00FFFF01000FFF000FFFFF000000000000
(1693900875.586788) can0 010##4E302004006971D
(1693900875.586788) can0 010##4E302004006971D
(1693900875.594456) can0 601##451DA03FE04005217317A1702162E2124C4D20000
(1693900875.594456) can0 601##451DA03FE04005217317A1702162E2124C4D20000
(1693900875.594457) can0 101##4510A160000000000
(1693900875.594457) can0 101##4510A160000000000
(1693900875.610654) can0 303##43E00FF00FFFF01000FFF000FFFFF000000000000
(1693900875.610654) can0 303##43E00FF00FFFF01000FFF000FFFFF000000000000
(1693900875.636018) can0 010##4E4020040068E59
(1693900875.636018) can0 010##4E4020040068E59
(1693900875.644477) can0 601##452DA03FE04003E1731841702162E2124BAD20000
(1693900875.644477) can0 601##452DA03FE04003E1731841702162E2124BAD20000
(1693900875.644479) can0 101##4520A160000000000
(1693900875.644479) can0 101##4520A160000000000
(1693900875.660615) can0 303##43F00FF00FFFF01000FFF000FFFFF000000000000
(1693900875.660615) can0 303##43F00FF00FFFF01000FFF000FFFFF000000000000
(1693900875.688325) can0 010##4E5020040063638
(1693900875.688325) can0 010##4E5020040063638
(1693900875.694342) can0 601##453DA03FE04003E17317A1702162E2124BAD20000
(1693900875.694342) can0 601##453DA03FE04003E17317A1702162E2124BAD20000
(1693900875.694343) can0 101##4530A160000000000
(1693900875.694343) can0 101##4530A160000000000
(1693900875.694344) can0 201##4430A01
(1693900875.694344) can0 201##4430A01
(1693900875.710691) can0 303##44000FF00FFFF01000FFF000FFFFF000000000000
(1693900875.710691) can0 303##44000FF00FFFF01000FFF000FFFFF000000000000
(1693900875.740833) can0 010##4E602004006EEBA
(1693900875.740833) can0 010##4E602004006EEBA
(1693900875.744493) can0 601##454DA03FE04003E17318E1702162E2124BAD20000
(1693900875.744493) can0 601##454DA03FE04003E17318E1702162E2124BAD20000
(1693900875.744494) can0 101##4540A160000000000
(1693900875.744494) can0 101##4540A160000000000
(1693900875.760607) can0 303##44100FF00FFFF01000FFF000FFFFF000000000000
(1693900875.760607) can0 303##44100FF00FFFF01000FFF000FFFFF000000000000
(1693900875.786176) can0 010##4E70200400656DB
(1693900875.786176) can0 010##4E70200400656DB
(1693900875.794391) can0 601##455DA03FE04003E17318E1702162E2124BAD20000
(1693900875.794391) can0 601##455DA03FE04003E17318E1702162E2124BAD20000
(1693900875.794392) can0 101##4550A160000000000
(1693900875.794392) can0 101##4550A160000000000
(1693900875.810685) can0 303##44200FF00FFFF01000FFF000FFFFF000000000000
(1693900875.810685) can0 303##44200FF00FFFF01000FFF000FFFFF000000000000
(1693900875.812319) can0 202##5D10A0DAC0A0DB000000019000E000001
(1693900875.812319) can0 202##5D10A0DAC0A0DB000000019000E000001
(1693900875.841625) can0 010##4E802004006DC32
(1693900875.841625) can0 010##4E802004006DC32
(1693900875.844429) can0 601##456DA03FE04003E1731701702162E2124BAD20000
(1693900875.844429) can0 601##456DA03FE04003E1731701702162E2124BAD20000
(1693900875.844432) can0 101##4560A160000000000
(1693900875.844432) can0 101##4560A160000000000
(1693900875.860651) can0 303##44300FF00FFFF01000FFF000FFFFF000000000000
(1693900875.860651) can0 303##44300FF00FFFF01000FFF000FFFFF000000000000
(1693900875.891964) can0 010##4E9020040066453
(1693900875.891964) can0 010##4E9020040066453
(1693900875.894442) can0 601##457DA03FE04003E17317A1702162E2124BAD20000
(1693900875.894442) can0 601##457DA03FE04003E17317A1702162E2124BAD20000
(1693900875.894443) can0 101##4570A160000000000
(1693900875.894443) can0 101##4570A160000000000
(1693900875.910700) can0 303##44400FF00FFFF01000FFF000FFFFF000000000000
(1693900875.910700) can0 303##44400FF00FFFF01000FFF000FFFFF000000000000
(1693900875.936393) can0 010##4EA02004006BCD1
(1693900875.936393) can0 010##4EA02004006BCD1
(1693900875.944494) can0 601##458DA03FE04003E17317A1702162E2124BAD20000
(1693900875.944494) can0 601##458DA03FE04003E17317A1702162E2124BAD20000
(1693900875.944495) can0 101##4580A160000000000
(1693900875.944495) can0 101##4580A160000000000
(1693900875.944496) can0 201##4440A01
(1693900875.944496) can0 201##4440A01
(1693900875.960549) can0 303##44500FF00FFFF01000FFF000FFFFF000000000000
(1693900875.960549) can0 303##44500FF00FFFF01000FFF000FFFFF000000000000
(1693900875.986109) can0 010##4EB0200400604B0
(1693900875.986109) can0 010##4EB0200400604B0
(1693900875.994523) can0 601##459DA03FE04003E17317A1702162E2124C4D20000
(1693900875.994523) can0 601##459DA03FE04003E17317A1702162E2124C4D20000
(1693900875.994524) can0 101##4590A160000000000
(1693900875.994524) can0 101##4590A160000000000
(1693900876.010695) can0 303##44600FF00FFFF01000FFF000FFFFF000000000000
(1693900876.010695) can0 303##44600FF00FFFF01000FFF000FFFFF000000000000
(1693900876.037112) can0 010##4EC020040061DF4
(1693900876.037112) can0 010##4EC020040061DF4
(1693900876.044510) can0 601##45ADA03FE04003E17315C1702162E2124BAD20000
(1693900876.044510) can0 601##45ADA03FE04003E17315C1702162E2124BAD20000
(1693900876.044512) can0 101##45A0A160000000000
(1693900876.044512) can0 101##45A0A160000000000
(1693900876.060643) can0 303##44700FF00FFFF01000FFF000FFFFF000000000000
(1693900876.060643) can0 303##44700FF00FFFF01000FFF000FFFFF000000000000
(1693900876.092042) can0 010##4ED02004006A595
(1693900876.092042) can0 010##4ED02004006A595
(1693900876.094482) can0 601##45BDA03FE04003E1731661702162E2124C4D20000
(1693900876.094482) can0 601##45BDA03FE04003E1731661702162E2124C4D20000
(1693900876.094483) can0 101##45B0A160000000000
(1693900876.094483) can0 101##45B0A160000000000
(1693900876.110614) can0 303##44800FF00FFFF01000FFF000FFFFF000000000000
(1693900876.110614) can0 303##44800FF00FFFF01000FFF000FFFFF000000000000
(1693900876.136623) can0 010##4EE020040067D17
(1693900876.136623) can0 010##4EE020040067D17
(1693900876.144317) can0 601##45CDA03FE04005C1731661702162E2124C4D20000
(1693900876.144317) can0 601##45CDA03FE04005C1731661702162E2124C4D20000
(1693900876.144319) can0 101##45C0A160000000000
(1693900876.144319) can0 101##45C0A160000000000
(1693900876.160633) can0 303##44900FF00FFFF01000FFF000FFFFF000000000000
(1693900876.160633) can0 303##44900FF00FFFF01000FFF000FFFFF000000000000
(1693900876.186709) can0 010##4EF02004006C576
(1693900876.186709) can0 010##4EF02004006C576
(1693900876.194487) can0 601##45DDA03FE04003E1731B61702162E2124BAD20000
(1693900876.194487) can0 601##45DDA03FE04003E1731B61702162E2124BAD20000
(1693900876.194488) can0 101##45D0A160000000000
(1693900876.194488) can0 101##45D0A160000000000
(1693900876.194488) can0 201##4450A01
(1693900876.194488) can0 201##4450A01
(1693900876.210700) can0 303##44A00FF00FFFF01000FFF000FFFFF000000000000
(1693900876.210700) can0 303##44A00FF00FFFF01000FFF000FFFFF000000000000
(1693900876.240627) can0 010##4F00200400678E4
(1693900876.240627) can0 010##4F00200400678E4
(1693900876.244518) can0 601##45EDA03FE04004817317A1702162F2124BAD20000
(1693900876.244518) can0 601##45EDA03FE04004817317A1702162F2124BAD20000
(1693900876.244519) can0 101##45E0A160000000000
(1693900876.244519) can0 101##45E0A160000000000
(1693900876.260613) can0 303##44B00FF00FFFF01000FFF000FFFFF000000000000
(1693900876.260613) can0 303##44B00FF00FFFF01000FFF000FFFFF000000000000
(1693900876.289191) can0 010##4F102004006C085
(1693900876.289191) can0 010##4F102004006C085
(1693900876.294513) can0 601##45FDA03FE04003E1731701702162F2124BAD20000
(1693900876.294513) can0 601##45FDA03FE04003E1731701702162F2124BAD20000
(1693900876.294515) can0 101##45F0A160000000000
(1693900876.294515) can0 101##45F0A160000000000
(1693900876.310700) can0 303##44C00FF00FFFF01000FFF000FFFFF000000000000
(1693900876.310700) can0 303##44C00FF00FFFF01000FFF000FFFFF000000000000
(1693900876.336292) can0 010##4F2020040061807
(1693900876.336292) can0 010##4F2020040061807
(1693900876.344448) can0 601##460DA03FE0400521731981702162F2124C4D20000
(1693900876.344448) can0 601##460DA03FE0400521731981702162F2124C4D20000
(1693900876.344450) can0 101##4600A160000000000
(1693900876.344450) can0 101##4600A160000000000
(1693900876.360645) can0 303##44D00FF00FFFF01000FFF000FFFFF000000000000
(1693900876.360645) can0 303##44D00FF00FFFF01000FFF000FFFFF000000000000
(1693900876.386323) can0 010##4F302004006A066
(1693900876.386323) can0 010##4F302004006A066
(1693900876.394586) can0 601##461DA03FE04003E1731661702162F2124C4D20000
(1693900876.394586) can0 601##461DA03FE04003E1731661702162F2124C4D20000
(1693900876.394587) can0 101##4610A160000000000
(1693900876.394587) can0 101##4610A160000000000
(1693900876.410744) can0 303##44E00FF00FFFF01000FFF000FFFFF000000000000
(1693900876.410744) can0 303##44E00FF00FFFF01000FFF000FFFFF000000000000
(1693900876.440079) can0 010##4F402004006B922
(1693900876.440079) can0 010##4F402004006B922
(1693900876.444412) can0 601##462DA03FE0400521731841702162F2124C4D20000
(1693900876.444412) can0 601##462DA03FE0400521731841702162F2124C4D20000
(1693900876.444413) can0 101##4620A160000000000
(1693900876.444413) can0 101##4620A160000000000
(1693900876.444413) can0 201##4460A01
(1693900876.444413) can0 201##4460A01
(1693900876.460537) can0 303##44F00FF00FFFF01000FFF000FFFFF000000000000
(1693900876.460537) can0 303##44F00FF00FFFF01000FFF000FFFFF000000000000
(1693900876.490472) can0 010##4F5020040060143
(1693900876.490472) can0 010##4F5020040060143
(1693900876.494457) can0 601##463DA03FE04003E17315C1702162F2124BAD20000
(1693900876.494457) can0 601##463DA03FE04003E17315C1702162F2124BAD20000
(1693900876.494457) can0 101##4630A160000000000
(1693900876.494457) can0 101##4630A160000000000
(1693900876.510656) can0 303##45000FF00FFFF01000FFF000FFFFF000000000000
(1693900876.510656) can0 303##45000FF00FFFF01000FFF000FFFFF000000000000
(1693900876.536450) can0 010##4F602004006D9C1
(1693900876.536450) can0 010##4F602004006D9C1
(1693900876.544420) can0 601##464DA03FE04003E17317A1702162F2124C4D20000
(1693900876.544420) can0 601##464DA03FE04003E17317A1702162F2124C4D20000
(1693900876.544421) can0 101##4640A160000000000
(1693900876.544421) can0 101##4640A160000000000
(1693900876.560853) can0 303##45100FF00FFFF01000FFF000FFFFF000000000000
(1693900876.560853) can0 303##45100FF00FFFF01000FFF000FFFFF000000000000
(1693900876.591176) can0 010##4F70200400661A0
(1693900876.591176) can0 010##4F70200400661A0
(1693900876.594551) can0 601##465DA03FE04005217317A1702162F2124C4D20000
(1693900876.594551) can0 601##465DA03FE04005217317A1702162F2124C4D20000
(1693900876.594553) can0 101##4650A160000000000
(1693900876.594553) can0 101##4650A160000000000
(1693900876.610696) can0 303##45200FF00FFFF01000FFF000FFFFF000000000000
(1693900876.610696) can0 303##45200FF00FFFF01000FFF000FFFFF000000000000
(1693900876.638326) can0 010##4F802004006EB49
(1693900876.638326) can0 010##4F802004006EB49
(1693900876.644416) can0 601##466DA03FE04003E1731521702162F2124BAD20000
(1693900876.644416) can0 601##466DA03FE04003E1731521702162F2124BAD20000
(1693900876.644418) can0 101##4660A160000000000
(1693900876.644418) can0 101##4660A160000000000
(1693900876.660645) can0 303##45300FF00FFFF01000FFF000FFFFF000000000000
(1693900876.660645) can0 303##45300FF00FFFF01000FFF000FFFFF000000000000
(1693900876.686531) can0 010##4F9020040065328
(1693900876.686531) can0 010##4F9020040065328
(1693900876.694560) can0 601##467DA03FE04003E17317A1702162F2124C4D20000
(1693900876.694560) can0 601##467DA03FE04003E17317A1702162F2124C4D20000
(1693900876.694561) can0 101##4670A160000000000
(1693900876.694561) can0 101##4670A160000000000
(1693900876.694562) can0 201##4470A01
(1693900876.694562) can0 201##4470A01
(1693900876.710698) can0 303##45400FF00FFFF01000FFF000FFFFF000000000000
(1693900876.710698) can0 303##45400FF00FFFF01000FFF000FFFFF000000000000
(1693900876.736656) can0 010##4FA020040068BAA
(1693900876.736656) can0 010##4FA020040068BAA
(1693900876.744473) can0 601##468DA03FE0400521731841702162F2124BAD20000
(1693900876.744473) can0 601##468DA03FE0400521731841702162F2124BAD20000
(1693900876.744476) can0 101##4680A160000000000
(1693900876.744476) can0 101##4680A160000000000
(1693900876.760667) can0 303##45500FF00FFFF01000FFF000FFFFF000000000000
(1693900876.760667) can0 303##45500FF00FFFF01000FFF000FFFFF000000000000
(1693900876.786472) can0 010##4FB0200400633CB
(1693900876.786472) can0 010##4FB0200400633CB
(1693900876.794555) can0 601##469DA03FE0400481731A21702162F2124C4D20000
(1693900876.794555) can0 601##469DA03FE0400481731A21702162F2124C4D20000
(1693900876.794556) can0 101##4690A160000000000
(1693900876.794556) can0 101##4690A160000000000
(1693900876.810693) can0 303##45600FF00FFFF01000FFF000FFFFF000000000000
(1693900876.810693) can0 303##45600FF00FFFF01000FFF000FFFFF000000000000
(1693900876.813101) can0 202##5D20A0DAC090DAA00000019000E000001
(1693900876.813101) can0 202##5D20A0DAC090DAA00000019000E000001
(1693900876.836169) can0 010##4FC020040062A8F
(1693900876.836169) can0 010##4FC020040062A8F
(1693900876.844556) can0 601##46ADA03FE04003E17317A1702162F2124C4D20000
(1693900876.844556) can0 601##46ADA03FE04003E17317A1702162F2124C4D20000
(1693900876.844558) can0 101##46A0A160000000000
(1693900876.844558) can0 101##46A0A160000000000
(1693900876.860691) can0 303##45700FF00FFFF01000FFF000FFFFF000000000000
(1693900876.860691) can0 303##45700FF00FFFF01000FFF000FFFFF000000000000
(1693900876.887727) can0 010##4FD0200400692EE
(1693900876.887727) can0 010##4FD0200400692EE
(1693900876.894585) can0 601##46BDA03FE04003E1731841702162F2124BAD20000
(1693900876.894585) can0 601##46BDA03FE04003E1731841702162F2124BAD20000
(1693900876.894587) can0 101##46B0A160000000000
(1693900876.894587) can0 101##46B0A160000000000
(1693900876.910671) can0 303##45800FF00FFFF01000FFF000FFFFF000000000000
(1693900876.910671) can0 303##45800FF00FFFF01000FFF000FFFFF000000000000
(1693900876.936634) can0 010##4FE020040064A6C
(1693900876.936634) can0 010##4FE020040064A6C
(1693900876.944462) can0 601##46CDA03FE04003E17317A1702162F2124C4D20000
(1693900876.944462) can0 601##46CDA03FE04003E17317A1702162F2124C4D20000
(1693900876.944463) can0 101##46C0A160000000000
(1693900876.944463) can0 101##46C0A160000000000
(1693900876.944464) can0 201##4480A01
(1693900876.944464) can0 201##4480A01
(1693900876.960593) can0 303##45900FF00FFFF01000FFF000FFFFF000000000000
(1693900876.960593) can0 303##45900FF00FFFF01000FFF000FFFFF000000000000
(1693900876.987631) can0 010##4FF02004006F20D
(1693900876.987631) can0 010##4FF02004006F20D
(1693900876.994496) can0 601##46DDA03FE04005217317A1702162F2124BAD20000
(1693900876.994496) can0 601##46DDA03FE04005217317A1702162F2124BAD20000
(1693900876.994497) can0 101##46D0A160000000000
(1693900876.994497) can0 101##46D0A160000000000
(1693900877.010618) can0 303##45A00FF00FFFF01000FFF000FFFFF000000000000
(1693900877.010618) can0 303##45A00FF00FFFF01000FFF000FFFFF000000000000
(1693900877.036503) can0 010##40002004006577C
(1693900877.036503) can0 010##40002004006577C
(1693900877.044523) can0 601##46EDA03FE04003E1731701702162F2124C4D20000
(1693900877.044523) can0 601##46EDA03FE04003E1731701702162F2124C4D20000
(1693900877.044524) can0 101##46E0A160000000000
(1693900877.044524) can0 101##46E0A160000000000
(1693900877.060597) can0 303##45B00FF00FFFF01000FFF000FFFFF000000000000
(1693900877.060597) can0 303##45B00FF00FFFF01000FFF000FFFFF000000000000
(1693900877.090784) can0 010##40102004006EF1D
(1693900877.090784) can0 010##40102004006EF1D
(1693900877.094485) can0 601##46FDA03FE04003E17317A1702162F2124C4D20000
(1693900877.094485) can0 601##46FDA03FE04003E17317A1702162F2124C4D20000
(1693900877.094486) can0 101##46F0A160000000000
(1693900877.094486) can0 101##46F0A160000000000
(1693900877.110625) can0 303##45C00FF00FFFF01000FFF000FFFFF000000000000
(1693900877.110625) can0 303##45C00FF00FFFF01000FFF000FFFFF000000000000
(1693900877.136205) can0 010##40202004006379F
(1693900877.136205) can0 010##40202004006379F
(1693900877.144514) can0 601##470DA03FE04003E17317A1702162F2124BAD20000
(1693900877.144514) can0 601##470DA03FE04003E17317A1702162F2124BAD20000
(1693900877.144515) can0 101##4700A160000000000
(1693900877.144515) can0 101##4700A160000000000
(1693900877.160604) can0 303##45D00FF00FFFF01000FFF000FFFFF000000000000
(1693900877.160604) can0 303##45D00FF00FFFF01000FFF000FFFFF000000000000
(1693900877.186524) can0 010##403020040068FFE
(1693900877.186524) can0 010##403020040068FFE
(1693900877.194484) can0 601##471DA03FE04003E1731A21702162F2124BAD20000
(1693900877.194484) can0 601##471DA03FE04003E1731A21702162F2124BAD20000
(1693900877.194485) can0 101##4710A160000000000
(1693900877.194485) can0 101##4710A160000000000
(1693900877.194486) can0 201##4490A01
(1693900877.194486) can0 201##4490A01
(1693900877.210648) can0 303##45E00FF00FFFF01000FFF000FFFFF000000000000
(1693900877.210648) can0 303##45E00FF00FFFF01000FFF000FFFFF000000000000
(1693900877.236190) can0 010##4040200400696BA
(1693900877.236190) can0 010##4040200400696BA
(1693900877.244512) can0 601##472DA03FE04003E1731701702162F2124C4D20000
(1693900877.244512) can0 601##472DA03FE04003E1731701702162F2124C4D20000
(1693900877.244513) can0 101##4720A160000000000
(1693900877.244513) can0 101##4720A160000000000
(1693900877.260680) can0 303##45F00FF00FFFF01000FFF000FFFFF000000000000
(1693900877.260680) can0 303##45F00FF00FFFF01000FFF000FFFFF000000000000
(1693900877.286616) can0 010##405020040062EDB
(1693900877.286616) can0 010##405020040062EDB
(1693900877.294517) can0 601##473DA03FE04003E17317A1702162F2124BAD20000
(1693900877.294517) can0 601##473DA03FE04003E17317A1702162F2124BAD20000
(1693900877.294517) can0 101##4730A160000000000
(1693900877.294517) can0 101##4730A160000000000
(1693900877.310613) can0 303##46000FF00FFFF01000FFF000FFFFF000000000000
(1693900877.310613) can0 303##46000FF00FFFF01000FFF000FFFFF000000000000
(1693900877.337035) can0 010##40602004006F659
(1693900877.337035) can0 010##40602004006F659
(1693900877.344538) can0 601##474DA03FE04003E1731661702162F2124BAD20000
(1693900877.344538) can0 601##474DA03FE04003E1731661702162F2124BAD20000
(1693900877.344539) can0 101##4740A160000000000
(1693900877.344539) can0 101##4740A160000000000
(1693900877.360603) can0 303##46100FF00FFFF01000FFF000FFFFF000000000000
(1693900877.360603) can0 303##46100FF00FFFF01000FFF000FFFFF000000000000
(1693900877.386574) can0 010##407020040064E38
(1693900877.386574) can0 010##407020040064E38
(1693900877.394436) can0 601##475DA03FE0400481731701702162F2124BAD20000
(1693900877.394436) can0 601##475DA03FE0400481731701702162F2124BAD20000
(1693900877.394437) can0 101##4750A160000000000
(1693900877.394437) can0 101##4750A160000000000
(1693900877.410619) can0 303##46200FF00FFFF01000FFF000FFFFF000000000000
(1693900877.410619) can0 303##46200FF00FFFF01000FFF000FFFFF000000000000
(1693900877.436215) can0 010##40802004006C4D1
(1693900877.436215) can0 010##40802004006C4D1
(1693900877.444555) can0 601##476DA03FE04003E17315C1702162F2124C4D20000
(1693900877.444555) can0 601##476DA03FE04003E17315C1702162F2124C4D20000
(1693900877.444556) can0 101##4760A160000000000
(1693900877.444556) can0 101##4760A160000000000
(1693900877.444557) can0 201##44A0A01
(1693900877.444557) can0 201##44A0A01
(1693900877.460627) can0 303##46300FF00FFFF01000FFF000FFFFF000000000000
(1693900877.460627) can0 303##46300FF00FFFF01000FFF000FFFFF000000000000
(1693900877.486675) can0 010##409020040067CB0
(1693900877.486675) can0 010##409020040067CB0
(1693900877.494602) can0 601##477DA03FE04003E1731661702162F2124BAD20000
(1693900877.494602) can0 601##477DA03FE04003E1731661702162F2124BAD20000
(1693900877.494603) can0 101##4770A160000000000
(1693900877.494603) can0 101##4770A160000000000
(1693900877.510736) can0 303##46400FF00FFFF01000FFF000FFFFF000000000000
(1693900877.510736) can0 303##46400FF00FFFF01000FFF000FFFFF000000000000
(1693900877.536292) can0 010##40A02004006A432
(1693900877.536292) can0 010##40A02004006A432
(1693900877.544583) can0 601##478DA03FE04003E17317A1702162F2124BAD20000
(1693900877.544583) can0 601##478DA03FE04003E17317A1702162F2124BAD20000
(1693900877.544584) can0 101##4780A160000000000
(1693900877.544584) can0 101##4780A160000000000
(1693900877.560679) can0 303##46500FF00FFFF01000FFF000FFFFF000000000000
(1693900877.560679) can0 303##46500FF00FFFF01000FFF000FFFFF000000000000
(1693900877.590608) can0 010##40B020040061C53
(1693900877.590608) can0 010##40B020040061C53
(1693900877.594589) can0 601##479DA03FE04003E17317A1702162F2124BAD20000
(1693900877.594589) can0 601##479DA03FE04003E17317A1702162F2124BAD20000
(1693900877.594590) can0 101##4790A160000000000
(1693900877.594590) can0 101##4790A160000000000
(1693900877.610737) can0 303##46600FF00FFFF01000FFF000FFFFF000000000000
(1693900877.610737) can0 303##46600FF00FFFF01000FFF000FFFFF000000000000
(1693900877.636633) can0 010##40C020040060517
(1693900877.636633) can0 010##40C020040060517
(1693900877.644560) can0 601##47ADA03FE04003E1731981702162F2124BAD20000
(1693900877.644560) can0 601##47ADA03FE04003E1731981702162F2124BAD20000
(1693900877.644560) can0 101##47A0A160000000000
(1693900877.644560) can0 101##47A0A160000000000
(1693900877.660560) can0 303##46700FF00FFFF01000FFF000FFFFF000000000000
(1693900877.660560) can0 303##46700FF00FFFF01000FFF000FFFFF000000000000
(1693900877.690757) can0 010##40D02004006BD76
(1693900877.690757) can0 010##40D02004006BD76
(1693900877.694444) can0 601##47BDA03FE04003E17315C1702162F2124C4D20000
(1693900877.694444) can0 601##47BDA03FE04003E17315C1702162F2124C4D20000
(1693900877.694447) can0 101##47B0A160000000000
(1693900877.694447) can0 101##47B0A160000000000
(1693900877.694449) can0 201##44B0A01
(1693900877.694449) can0 201##44B0A01
(1693900877.710548) can0 303##46800FF00FFFF01000FFF000FFFFF000000000000
(1693900877.710548) can0 303##46800FF00FFFF01000FFF000FFFFF000000000000
(1693900877.737081) can0 010##40E0200400665F4
(1693900877.737081) can0 010##40E0200400665F4
(1693900877.744500) can0 601##47CDA03FE04003E17315C1702162F2124BAD20000
(1693900877.744500) can0 601##47CDA03FE04003E17315C1702162F2124BAD20000
(1693900877.744500) can0 101##47C0A160000000000
(1693900877.744500) can0 101##47C0A160000000000
(1693900877.760631) can0 303##46900FF00FFFF01000FFF000FFFFF000000000000
(1693900877.760631) can0 303##46900FF00FFFF01000FFF000FFFFF000000000000
(1693900877.786399) can0 010##40F02004006DD95
(1693900877.786399) can0 010##40F02004006DD95
(1693900877.794552) can0 601##47DDA03FE04003E17317A1702162F2124C4D20000
(1693900877.794552) can0 601##47DDA03FE04003E17317A1702162F2124C4D20000
(1693900877.794553) can0 101##47D0A160000000000
(1693900877.794553) can0 101##47D0A160000000000
(1693900877.810676) can0 303##46A00FF00FFFF01000FFF000FFFFF000000000000
(1693900877.810676) can0 303##46A00FF00FFFF01000FFF000FFFFF000000000000
(1693900877.813501) can0 202##5D30A0DAC0A0DB000000019000E000001
(1693900877.813501) can0 202##5D30A0DAC0A0DB000000019000E000001
(1693900877.841760) can0 010##410020040066007
(1693900877.841760) can0 010##410020040066007
(1693900877.844541) can0 601##47EDA03FE04003E1731701702162F2124C4D20000
(1693900877.844541) can0 601##47EDA03FE04003E1731701702162F2124C4D20000
(1693900877.844543) can0 101##47E0A160000000000
(1693900877.844543) can0 101##47E0A160000000000
(1693900877.860605) can0 303##46B00FF00FFFF01000FFF000FFFFF000000000000
(1693900877.860605) can0 303##46B00FF00FFFF01000FFF000FFFFF000000000000
(1693900877.886788) can0 010##41102004006D866
(1693900877.886788) can0 010##41102004006D866
(1693900877.894585) can0 601##47FDA03FE04003E17317A1702162F2124BAD20000
(1693900877.894585) can0 601##47FDA03FE04003E17317A1702162F2124BAD20000
(1693900877.894586) can0 101##47F0A160000000000
(1693900877.894586) can0 101##47F0A160000000000
(1693900877.910736) can0 303##46C00FF00FFFF01000FFF000FFFFF000000000000
(1693900877.910736) can0 303##46C00FF00FFFF01000FFF000FFFFF000000000000
(1693900877.936757) can0 010##4120200400600E4
(1693900877.936757) can0 010##4120200400600E4
(1693900877.944573) can0 601##480DA03FE04003E1731661702162F2124BAD20000
(1693900877.944573) can0 601##480DA03FE04003E1731661702162F2124BAD20000
(1693900877.944573) can0 101##4800A160000000000
(1693900877.944573) can0 101##4800A160000000000
(1693900877.944573) can0 201##44C0A01
(1693900877.944573) can0 201##44C0A01
(1693900877.960651) can0 303##46D00FF00FFFF01000FFF000FFFFF000000000000
(1693900877.960651) can0 303##46D00FF00FFFF01000FFF000FFFFF000000000000
(1693900877.986596) can0 010##41302004006B885
(1693900877.986596) can0 010##41302004006B885
(1693900877.994612) can0 601##481DA03FE04003E17317A1702162F2224BAD20000
(1693900877.994612) can0 601##481DA03FE04003E17317A1702162F2224BAD20000
(1693900877.994612) can0 101##4810A160000000000
(1693900877.994612) can0 101##4810A160000000000
(1693900878.010641) can0 303##46E00FF00FFFF01000FFF000FFFFF000000000000
(1693900878.010641) can0 303##46E00FF00FFFF01000FFF000FFFFF000000000000
(1693900878.037041) can0 010##41402004006A1C1
(1693900878.037041) can0 010##41402004006A1C1
(1693900878.044490) can0 601##482DA03FE04003E1731701702162F2224BAD20000
(1693900878.044490) can0 601##482DA03FE04003E1731701702162F2224BAD20000
(1693900878.044491) can0 101##4820A160000000000
(1693900878.044491) can0 101##4820A160000000000
(1693900878.060645) can0 303##46F00FF00FFFF01000FFF000FFFFF000000000000
(1693900878.060645) can0 303##46F00FF00FFFF01000FFF000FFFFF000000000000
(1693900878.088539) can0 010##4150200400619A0
(1693900878.088539) can0 010##4150200400619A0
(1693900878.094482) can0 601##483DA03FE04003E1731A21702162F2224BAD20000
(1693900878.094482) can0 601##483DA03FE04003E1731A21702162F2224BAD20000
(1693900878.094483) can0 101##4830A160000000000
(1693900878.094483) can0 101##4830A160000000000
(1693900878.110635) can0 303##47000FF00FFFF01000FFF000FFFFF000000000000
(1693900878.110635) can0 303##47000FF00FFFF01000FFF000FFFFF000000000000
(1693900878.137981) can0 010##41602004006C122
(1693900878.137981) can0 010##41602004006C122
(1693900878.144606) can0 601##484DA03FE04004817315C1702162F2224BAD20000
(1693900878.144606) can0 601##484DA03FE04004817315C1702162F2224BAD20000
(1693900878.144607) can0 101##4840A160000000000
(1693900878.144607) can0 101##4840A160000000000
(1693900878.160627) can0 303##47100FF00FFFF01000FFF000FFFFF000000000000
(1693900878.160627) can0 303##47100FF00FFFF01000FFF000FFFFF000000000000
(1693900878.189553) can0 010##417020040067943
(1693900878.189553) can0 010##417020040067943
(1693900878.194491) can0 601##485DA03FE04003E17317A1702162F2224BAD20000
(1693900878.194491) can0 601##485DA03FE04003E17317A1702162F2224BAD20000
(1693900878.194491) can0 101##4850A160000000000
(1693900878.194491) can0 101##4850A160000000000
(1693900878.194491) can0 201##44D0A01
(1693900878.194491) can0 201##44D0A01
(1693900878.210604) can0 303##47200FF00FFFF01000FFF000FFFFF000000000000
(1693900878.210604) can0 303##47200FF00FFFF01000FFF000FFFFF000000000000
(1693900878.238114) can0 010##41802004006F3AA
(1693900878.238114) can0 010##41802004006F3AA
(1693900878.244657) can0 601##486DA03FE04003E17317A1702162F2224C4D20000
(1693900878.244657) can0 601##486DA03FE04003E17317A1702162F2224C4D20000
(1693900878.244657) can0 101##4860A160000000000
(1693900878.244657) can0 101##4860A160000000000
(1693900878.260634) can0 303##47300FF00FFFF01000FFF000FFFFF000000000000
(1693900878.260634) can0 303##47300FF00FFFF01000FFF000FFFFF000000000000
(1693900878.289169) can0 010##419020040064BCB
(1693900878.289169) can0 010##419020040064BCB
(1693900878.294596) can0 601##487DA03FE04003E1731661702162F2224BAD20000
(1693900878.294596) can0 601##487DA03FE04003E1731661702162F2224BAD20000
(1693900878.294597) can0 101##4870A160000000000
(1693900878.294597) can0 101##4870A160000000000
(1693900878.310637) can0 303##47400FF00FFFF01000FFF000FFFFF000000000000
(1693900878.310637) can0 303##47400FF00FFFF01000FFF000FFFFF000000000000
(1693900878.336860) can0 010##41A020040069349
(1693900878.336860) can0 010##41A020040069349
(1693900878.344595) can0 601##488DA03FE04003E17318E1702162F2224BAD20000
(1693900878.344595) can0 601##488DA03FE04003E17318E1702162F2224BAD20000
(1693900878.344596) can0 101##4880A160000000000
(1693900878.344596) can0 101##4880A160000000000
(1693900878.360653) can0 303##47500FF00FFFF01000FFF000FFFFF000000000000
(1693900878.360653) can0 303##47500FF00FFFF01000FFF000FFFFF000000000000
(1693900878.387483) can0 010##41B020040062B28
(1693900878.387483) can0 010##41B020040062B28
(1693900878.394690) can0 601##489DA03FE04003E17317A1702162F2224BAD20000
(1693900878.394690) can0 601##489DA03FE04003E17317A1702162F2224BAD20000
(1693900878.394691) can0 101##4890A160000000000
(1693900878.394691) can0 101##4890A160000000000
(1693900878.410717) can0 303##47600FF00FFFF01000FFF000FFFFF000000000000
(1693900878.410717) can0 303##47600FF00FFFF01000FFF000FFFFF000000000000
(1693900878.437143) can0 010##41C02004006326C
(1693900878.437143) can0 010##41C02004006326C
(1693900878.444517) can0 601##48ADA03FE04005217318E1702162F2224C4D20000
(1693900878.444517) can0 601##48ADA03FE04005217318E1702162F2224C4D20000
(1693900878.444518) can0 101##48A0A160000000000
(1693900878.444518) can0 101##48A0A160000000000
(1693900878.444519) can0 201##44E0A01
(1693900878.444519) can0 201##44E0A01
(1693900878.460584) can0 303##47700FF00FFFF01000FFF000FFFFF000000000000
(1693900878.460584) can0 303##47700FF00FFFF01000FFF000FFFFF000000000000
(1693900878.486998) can0 010##41D020040068A0D
(1693900878.486998) can0 010##41D020040068A0D
(1693900878.494625) can0 601##48BDA03FE04003E17317A1702162F2224C4D20000
(1693900878.494625) can0 601##48BDA03FE04003E17317A1702162F2224C4D20000
(1693900878.494627) can0 101##48B0A160000000000
(1693900878.494627) can0 101##48B0A160000000000
(1693900878.510617) can0 303##47800FF00FFFF01000FFF000FFFFF000000000000
(1693900878.510617) can0 303##47800FF00FFFF01000FFF000FFFFF000000000000
(1693900878.537340) can0 010##41E02004006528F
(1693900878.537340) can0 010##41E02004006528F
(1693900878.544608) can0 601##48CDA03FE04003E17315C1702162F2224C4D20000
(1693900878.544608) can0 601##48CDA03FE04003E17315C1702162F2224C4D20000
(1693900878.544609) can0 101##48C0A160000000000
(1693900878.544609) can0 101##48C0A160000000000
(1693900878.560590) can0 303##47900FF00FFFF01000FFF000FFFFF000000000000
(1693900878.560590) can0 303##47900FF00FFFF01000FFF000FFFFF000000000000
(1693900878.587167) can0 010##41F02004006EAEE
(1693900878.587167) can0 010##41F02004006EAEE
(1693900878.594655) can0 601##48DDA03FE04003E17317A1702162F2224BAD20000
(1693900878.594655) can0 601##48DDA03FE04003E17317A1702162F2224BAD20000
(1693900878.594656) can0 101##48D0A160000000000
(1693900878.594656) can0 101##48D0A160000000000
(1693900878.610526) can0 303##47A00FF00FFFF01000FFF000FFFFF000000000000
(1693900878.610526) can0 303##47A00FF00FFFF01000FFF000FFFFF000000000000
(1693900878.637701) can0 010##42002004006398A
(1693900878.637701) can0 010##42002004006398A
(1693900878.644597) can0 601##48EDA03FE04003E17317A1702162F2224C4D20000
(1693900878.644597) can0 601##48EDA03FE04003E17317A1702162F2224C4D20000
(1693900878.644598) can0 101##48E0A160000000000
(1693900878.644598) can0 101##48E0A160000000000
(1693900878.660639) can0 303##47B00FF00FFFF01000FFF000FFFFF000000000000
(1693900878.660639) can0 303##47B00FF00FFFF01000FFF000FFFFF000000000000
(1693900878.687080) can0 010##4210200400681EB
(1693900878.687080) can0 010##4210200400681EB
(1693900878.694714) can0 601##48FDA03FE04004817317A1702162F2224C4D20000
(1693900878.694714) can0 601##48FDA03FE04004817317A1702162F2224C4D20000
(1693900878.694715) can0 101##48F0A160000000000
(1693900878.694715) can0 101##48F0A160000000000
(1693900878.694716) can0 201##44F0A01
(1693900878.694716) can0 201##44F0A01
(1693900878.710732) can0 303##47C00FF00FFFF01000FFF000FFFFF000000000000
(1693900878.710732) can0 303##47C00FF00FFFF01000FFF000FFFFF000000000000
(1693900878.741525) can0 010##422020040065969
(1693900878.741525) can0 010##422020040065969
(1693900878.744678) can0 601##490DA03FE0400521731661702162F2224C4D20000
(1693900878.744678) can0 601##490DA03FE0400521731661702162F2224C4D20000
(1693900878.744679) can0 101##4900A160000000000
(1693900878.744679) can0 101##4900A160000000000
(1693900878.760610) can0 303##47D00FF00FFFF01000FFF000FFFFF000000000000
(1693900878.760610) can0 303##47D00FF00FFFF01000FFF000FFFFF000000000000
(1693900878.787305) can0 010##42302004006E108
(1693900878.787305) can0 010##42302004006E108
(1693900878.794619) can0 601##491DA03FE04003E1731341702162F2224BAD20000
(1693900878.794619) can0 601##491DA03FE04003E1731341702162F2224BAD20000
(1693900878.794621) can0 101##4910A160000000000
(1693900878.794621) can0 101##4910A160000000000
(1693900878.810642) can0 303##47E00FF00FFFF01000FFF000FFFFF000000000000
(1693900878.810642) can0 303##47E00FF00FFFF01000FFF000FFFFF000000000000
(1693900878.814003) can0 202##5D40A0DAC0A0DB000000019000E000001
(1693900878.814003) can0 202##5D40A0DAC0A0DB000000019000E000001
(1693900878.836911) can0 010##42402004006F84C
(1693900878.836911) can0 010##42402004006F84C
(1693900878.844562) can0 601##492DA03FE04005217317A1702162F2224BAD20000
(1693900878.844562) can0 601##492DA03FE04005217317A1702162F2224BAD20000
(1693900878.844563) can0 101##4920A160000000000
(1693900878.844563) can0 101##4920A160000000000
(1693900878.860558) can0 303##47F00FF00FFFF01000FFF000FFFFF000000000000
(1693900878.860558) can0 303##47F00FF00FFFF01000FFF000FFFFF000000000000
(1693900878.887246) can0 010##42502004006402D
(1693900878.887246) can0 010##42502004006402D
(1693900878.894672) can0 601##493DA03FE04003E1731841702162F2224C4D20000
(1693900878.894672) can0 601##493DA03FE04003E1731841702162F2224C4D20000
(1693900878.894673) can0 101##4930A160000000000
(1693900878.894673) can0 101##4930A160000000000
(1693900878.910596) can0 303##48000FF00FFFF01000FFF000FFFFF000000000000
(1693900878.910596) can0 303##48000FF00FFFF01000FFF000FFFFF000000000000
(1693900878.937416) can0 010##4260200400698AF
(1693900878.937416) can0 010##4260200400698AF
(1693900878.944638) can0 601##494DA03FE04003E1731701702162F2224BAD20000
(1693900878.944638) can0 601##494DA03FE04003E1731701702162F2224BAD20000
(1693900878.944639) can0 101##4940A160000000000
(1693900878.944639) can0 101##4940A160000000000
(1693900878.944639) can0 201##4500A01
(1693900878.944639) can0 201##4500A01
(1693900878.960676) can0 303##48100FF00FFFF01000FFF000FFFFF000000000000
(1693900878.960676) can0 303##48100FF00FFFF01000FFF000FFFFF000000000000
(1693900878.987156) can0 010##4270200400620CE
(1693900878.987156) can0 010##4270200400620CE
(1693900878.994723) can0 601##495DA03FE04005217317A1702162F2224BAD20000
(1693900878.994723) can0 601##495DA03FE04005217317A1702162F2224BAD20000
(1693900878.994725) can0 101##4950A160000000000
(1693900878.994725) can0 101##4950A160000000000
(1693900879.010644) can0 303##48200FF00FFFF01000FFF000FFFFF000000000000
(1693900879.010644) can0 303##48200FF00FFFF01000FFF000FFFFF000000000000
(1693900879.040409) can0 010##42802004006AA27
(1693900879.040409) can0 010##42802004006AA27
(1693900879.044593) can0 601##496DA03FE04003E1731701702162F2224C4D20000
(1693900879.044593) can0 601##496DA03FE04003E1731701702162F2224C4D20000
(1693900879.044594) can0 101##4960A160000000000
(1693900879.044594) can0 101##4960A160000000000
(1693900879.060620) can0 303##48300FF00FFFF01000FFF000FFFFF000000000000
(1693900879.060620) can0 303##48300FF00FFFF01000FFF000FFFFF000000000000
(1693900879.086690) can0 010##429020040061246
(1693900879.086690) can0 010##429020040061246
(1693900879.094593) can0 601##497DA03FE04003E17317A1702162F2224C4D20000
(1693900879.094593) can0 601##497DA03FE04003E17317A1702162F2224C4D20000
(1693900879.094593) can0 101##4970A160000000000
(1693900879.094593) can0 101##4970A160000000000
(1693900879.110604) can0 303##48400FF00FFFF01000FFF000FFFFF000000000000
(1693900879.110604) can0 303##48400FF00FFFF01000FFF000FFFFF000000000000
(1693900879.141962) can0 010##42A02004006CAC4
(1693900879.141962) can0 010##42A02004006CAC4
(1693900879.144627) can0 601##498DA03FE04004817315C1702162F2224C4D20000
(1693900879.144627) can0 601##498DA03FE04004817315C1702162F2224C4D20000
(1693900879.144628) can0 101##4980A160000000000
(1693900879.144628) can0 101##4980A160000000000
(1693900879.160620) can0 303##48500FF00FFFF01000FFF000FFFFF000000000000
(1693900879.160620) can0 303##48500FF00FFFF01000FFF000FFFFF000000000000
(1693900879.187237) can0 010##42B0200400672A5
(1693900879.187237) can0 010##42B0200400672A5
(1693900879.194826) can0 601##499DA03FE04003E17317A1702162F2224C4D20000
(1693900879.194826) can0 601##499DA03FE04003E17317A1702162F2224C4D20000
(1693900879.194827) can0 101##4990A160000000000
(1693900879.194827) can0 101##4990A160000000000
(1693900879.194828) can0 201##4510A01
(1693900879.194828) can0 201##4510A01
(1693900879.210649) can0 303##48600FF00FFFF01000FFF000FFFFF000000000000
(1693900879.210649) can0 303##48600FF00FFFF01000FFF000FFFFF000000000000
(1693900879.241769) can0 010##42C020040066BE1
(1693900879.241769) can0 010##42C020040066BE1
(1693900879.244713) can0 601##49ADA03FE04003E17317A1702162F2225BAD20000
(1693900879.244713) can0 601##49ADA03FE04003E17317A1702162F2225BAD20000
(1693900879.244714) can0 101##49A0A160000000000
(1693900879.244714) can0 101##49A0A160000000000
(1693900879.260592) can0 303##48700FF00FFFF01000FFF000FFFFF000000000000
(1693900879.260592) can0 303##48700FF00FFFF01000FFF000FFFFF000000000000
(1693900879.287196) can0 010##42D02004006D380
(1693900879.287196) can0 010##42D02004006D380
(1693900879.294673) can0 601##49BDA03FE04003E17318E170216302225C4D20000
(1693900879.294673) can0 601##49BDA03FE04003E17318E170216302225C4D20000
(1693900879.294673) can0 101##49B0A160000000000
(1693900879.294673) can0 101##49B0A160000000000
(1693900879.310646) can0 303##48800FF00FFFF01000FFF000FFFFF000000000000
(1693900879.310646) can0 303##48800FF00FFFF01000FFF000FFFFF000000000000
(1693900879.340263) can0 010##42E020040060B02
(1693900879.340263) can0 010##42E020040060B02
(1693900879.344701) can0 601##49CDA03FE04003E173184170216302225BAD20000
(1693900879.344701) can0 601##49CDA03FE04003E173184170216302225BAD20000
(1693900879.344701) can0 101##49C0A160000000000
(1693900879.344701) can0 101##49C0A160000000000
(1693900879.360579) can0 303##48900FF00FFFF01000FFF000FFFFF000000000000
(1693900879.360579) can0 303##48900FF00FFFF01000FFF000FFFFF000000000000
(1693900879.391673) can0 010##42F02004006B363
(1693900879.391673) can0 010##42F02004006B363
(1693900879.394641) can0 601##49DDA03FE04003E17317A170216302225BAD20000
(1693900879.394641) can0 601##49DDA03FE04003E17317A170216302225BAD20000
(1693900879.394642) can0 101##49D0A160000000000
(1693900879.394642) can0 101##49D0A160000000000
(1693900879.410602) can0 303##48A00FF00FFFF01000FFF000FFFFF000000000000
(1693900879.410602) can0 303##48A00FF00FFFF01000FFF000FFFFF000000000000
(1693900879.439807) can0 010##430020040060EF1
(1693900879.439807) can0 010##430020040060EF1
(1693900879.444630) can0 601##49EDA03FE04003E17317A170216302225C4D20000
(1693900879.444630) can0 601##49EDA03FE04003E17317A170216302225C4D20000
(1693900879.444630) can0 101##49E0A160000000000
(1693900879.444630) can0 101##49E0A160000000000
(1693900879.444631) can0 201##4520A01
(1693900879.444631) can0 201##4520A01
(1693900879.460508) can0 303##48B00FF00FFFF01000FFF000FFFFF000000000000
(1693900879.460508) can0 303##48B00FF00FFFF01000FFF000FFFFF000000000000
(1693900879.490342) can0 010##43102004006B690
(1693900879.490342) can0 010##43102004006B690
(1693900879.494624) can0 601##49FDA03FE0400481731AC170216302225BAD20000
(1693900879.494624) can0 601##49FDA03FE0400481731AC170216302225BAD20000
(1693900879.494624) can0 101##49F0A160000000000
(1693900879.494624) can0 101##49F0A160000000000
(1693900879.510635) can0 303##48C00FF00FFFF01000FFF000FFFFF000000000000
(1693900879.510635) can0 303##48C00FF00FFFF01000FFF000FFFFF000000000000
(1693900879.537106) can0 010##432020040066E12
(1693900879.537106) can0 010##432020040066E12
(1693900879.544740) can0 601##4A0DA03FE04003E173170170216302225C4D20000
(1693900879.544740) can0 601##4A0DA03FE04003E173170170216302225C4D20000
(1693900879.544742) can0 101##4A00A160000000000
(1693900879.544742) can0 101##4A00A160000000000
(1693900879.560623) can0 303##48D00FF00FFFF01000FFF000FFFFF000000000000
(1693900879.560623) can0 303##48D00FF00FFFF01000FFF000FFFFF000000000000
(1693900879.589597) can0 010##43302004006D673
(1693900879.589597) can0 010##43302004006D673
(1693900879.594827) can0 601##4A1DA03FE04004817317A170216302225C4D20000
(1693900879.594827) can0 601##4A1DA03FE04004817317A170216302225C4D20000
(1693900879.594828) can0 101##4A10A160000000000
(1693900879.594828) can0 101##4A10A160000000000
(1693900879.610713) can0 303##48E00FF00FFFF01000FFF000FFFFF000000000000
(1693900879.610713) can0 303##48E00FF00FFFF01000FFF000FFFFF000000000000
(1693900879.639978) can0 010##43402004006CF37
(1693900879.639978) can0 010##43402004006CF37
(1693900879.644730) can0 601##4A2DA03FE04004817317A170216302225BAD20000
(1693900879.644730) can0 601##4A2DA03FE04004817317A170216302225BAD20000
(1693900879.644731) can0 101##4A20A160000000000
(1693900879.644731) can0 101##4A20A160000000000
(1693900879.660648) can0 303##48F00FF00FFFF01000FFF000FFFFF000000000000
(1693900879.660648) can0 303##48F00FF00FFFF01000FFF000FFFFF000000000000
(1693900879.689155) can0 010##435020040067756
(1693900879.689155) can0 010##435020040067756
(1693900879.694754) can0 601##4A3DA03FE04003E17317A170216302225BAD20000
(1693900879.694754) can0 601##4A3DA03FE04003E17317A170216302225BAD20000
(1693900879.694755) can0 101##4A30A160000000000
(1693900879.694755) can0 101##4A30A160000000000
(1693900879.694755) can0 201##4530A01
(1693900879.694755) can0 201##4530A01
(1693900879.710616) can0 303##49000FF00FFFF01000FFF000FFFFF000000000000
(1693900879.710616) can0 303##49000FF00FFFF01000FFF000FFFFF000000000000
(1693900879.736661) can0 010##43602004006AFD4
(1693900879.736661) can0 010##43602004006AFD4
(1693900879.744707) can0 601##4A4DA03FE04003E173184170216302225BAD20000
(1693900879.744707) can0 601##4A4DA03FE04003E173184170216302225BAD20000
(1693900879.744708) can0 101##4A40A160000000000
(1693900879.744708) can0 101##4A40A160000000000
(1693900879.760548) can0 303##49100FF00FFFF01000FFF000FFFFF000000000000
(1693900879.760548) can0 303##49100FF00FFFF01000FFF000FFFFF000000000000
(1693900879.791108) can0 010##4370200400617B5
(1693900879.791108) can0 010##4370200400617B5
(1693900879.794657) can0 601##4A5DA03FE04003E17317A170216302225BAD20000
(1693900879.794657) can0 601##4A5DA03FE04003E17317A170216302225BAD20000
(1693900879.794657) can0 101##4A50A160000000000
(1693900879.794657) can0 101##4A50A160000000000
(1693900879.810574) can0 303##49200FF00FFFF01000FFF000FFFFF000000000000
(1693900879.810574) can0 303##49200FF00FFFF01000FFF000FFFFF000000000000
(1693900879.814693) can0 202##5D50A0DAC090DA400000019000E000001
(1693900879.814693) can0 202##5D50A0DAC090DA400000019000E000001
(1693900879.836711) can0 010##438020040069D5C
(1693900879.836711) can0 010##438020040069D5C
(1693900879.844716) can0 601##4A6DA03FE04003E17317A170216302225C4D20000
(1693900879.844716) can0 601##4A6DA03FE04003E17317A170216302225C4D20000
(1693900879.844717) can0 101##4A60A160000000000
(1693900879.844717) can0 101##4A60A160000000000
(1693900879.860617) can0 303##49300FF00FFFF01000FFF000FFFFF000000000000
(1693900879.860617) can0 303##49300FF00FFFF01000FFF000FFFFF000000000000
(1693900879.886633) can0 010##43902004006253D
(1693900879.886633) can0 010##43902004006253D
(1693900879.894708) can0 601##4A7DA03FE04003E173166170216302225C4D20000
(1693900879.894708) can0 601##4A7DA03FE04003E173166170216302225C4D20000
(1693900879.894708) can0 101##4A70A160000000000
(1693900879.894708) can0 101##4A70A160000000000
(1693900879.910662) can0 303##49400FF00FFFF01000FFF000FFFFF000000000000
(1693900879.910662) can0 303##49400FF00FFFF01000FFF000FFFFF000000000000
(1693900879.936263) can0 010##43A02004006FDBF
(1693900879.936263) can0 010##43A02004006FDBF
(1693900879.944683) can0 601##4A8DA03FE04003E17317A170216302225BAD20000
(1693900879.944683) can0 601##4A8DA03FE04003E17317A170216302225BAD20000
(1693900879.944683) can0 101##4A80A160000000000
(1693900879.944683) can0 101##4A80A160000000000
(1693900879.944683) can0 201##4540A01
(1693900879.944683) can0 201##4540A01
(1693900879.960616) can0 303##49500FF00FFFF01000FFF000FFFFF000000000000
(1693900879.960616) can0 303##49500FF00FFFF01000FFF000FFFFF000000000000
(1693900879.986681) can0 010##43B0200400645DE
(1693900879.986681) can0 010##43B0200400645DE
(1693900879.994780) can0 601##4A9DA03FE04003E173184170216302225C4D20000
(1693900879.994780) can0 601##4A9DA03FE04003E173184170216302225C4D20000
(1693900879.994781) can0 101##4A90A160000000000
(1693900879.994781) can0 101##4A90A160000000000
(1693900880.010618) can0 303##49600FF00FFFF01000FFF000FFFFF000000000000
(1693900880.010618) can0 303##49600FF00FFFF01000FFF000FFFFF000000000000
(1693900880.038812) can0 010##43C020040065C9A
(1693900880.038812) can0 010##43C020040065C9A
(1693900880.044745) can0 601##4AADA03FE04003E17317A170216302225BAD20000
(1693900880.044745) can0 601##4AADA03FE04003E17317A170216302225BAD20000
(1693900880.044746) can0 101##4AA0A160000000000
(1693900880.044746) can0 101##4AA0A160000000000
(1693900880.060620) can0 303##49700FF00FFFF01000FFF000FFFFF000000000000
(1693900880.060620) can0 303##49700FF00FFFF01000FFF000FFFFF000000000000
(1693900880.086687) can0 010##43D02004006E4FB
(1693900880.086687) can0 010##43D02004006E4FB
(1693900880.094782) can0 601##4ABDA03FE04003E17317A170216302225BAD20000
(1693900880.094782) can0 601##4ABDA03FE04003E17317A170216302225BAD20000
(1693900880.094783) can0 101##4AB0A160000000000
(1693900880.094783) can0 101##4AB0A160000000000
(1693900880.110611) can0 303##49800FF00FFFF01000FFF000FFFFF000000000000
(1693900880.110611) can0 303##49800FF00FFFF01000FFF000FFFFF000000000000
(1693900880.136560) can0 010##43E020040063C79
(1693900880.136560) can0 010##43E020040063C79
(1693900880.144723) can0 601##4ACDA03FE04003E17317A170216302225BAD20000
(1693900880.144723) can0 601##4ACDA03FE04003E17317A170216302225BAD20000
(1693900880.144725) can0 101##4AC0A160000000000
(1693900880.144725) can0 101##4AC0A160000000000
(1693900880.160659) can0 303##49900FF00FFFF01000FFF000FFFFF000000000000
(1693900880.160659) can0 303##49900FF00FFFF01000FFF000FFFFF000000000000
(1693900880.186577) can0 010##43F020040068418
(1693900880.186577) can0 010##43F020040068418
(1693900880.194802) can0 601##4ADDA03FE04003E17317A170216302225C4D20000
(1693900880.194802) can0 601##4ADDA03FE04003E17317A170216302225C4D20000
(1693900880.194803) can0 101##4AD0A160000000000
(1693900880.194803) can0 101##4AD0A160000000000
(1693900880.194803) can0 201##4550A01
(1693900880.194803) can0 201##4550A01
(1693900880.210633) can0 303##49A00FF00FFFF01000FFF000FFFFF000000000000
(1693900880.210633) can0 303##49A00FF00FFFF01000FFF000FFFFF000000000000
(1693900880.237503) can0 010##440020040068A90
(1693900880.237503) can0 010##440020040068A90
(1693900880.244781) can0 601##4AEDA03FE04003E173170170216302225C4D20000
(1693900880.244781) can0 601##4AEDA03FE04003E173170170216302225C4D20000
(1693900880.244782) can0 101##4AE0A160000000000
(1693900880.244782) can0 101##4AE0A160000000000
(1693900880.260657) can0 303##49B00FF00FFFF01000FFF000FFFFF000000000000
(1693900880.260657) can0 303##49B00FF00FFFF01000FFF000FFFFF000000000000
(1693900880.286485) can0 010##4410200400632F1
(1693900880.286485) can0 010##4410200400632F1
(1693900880.294762) can0 601##4AFDA03FE04003E17317A170216302225BAD20000
(1693900880.294762) can0 601##4AFDA03FE04003E17317A170216302225BAD20000
(1693900880.294762) can0 101##4AF0A160000000000
(1693900880.294762) can0 101##4AF0A160000000000
(1693900880.310633) can0 303##49C00FF00FFFF01000FFF000FFFFF000000000000
(1693900880.310633) can0 303##49C00FF00FFFF01000FFF000FFFFF000000000000
(1693900880.337287) can0 010##44202004006EA73
(1693900880.337287) can0 010##44202004006EA73
(1693900880.344769) can0 601##4B0DA03FE04003E17317A170216302225BAD20000
(1693900880.344769) can0 601##4B0DA03FE04003E17317A170216302225BAD20000
(1693900880.344769) can0 101##4B00A160000000000
(1693900880.344769) can0 101##4B00A160000000000
(1693900880.360622) can0 303##49D00FF00FFFF01000FFF000FFFFF000000000000
(1693900880.360622) can0 303##49D00FF00FFFF01000FFF000FFFFF000000000000
(1693900880.386470) can0 010##443020040065212
(1693900880.386470) can0 010##443020040065212
(1693900880.394804) can0 601##4B1DA03FE04003E17317A170216302225C4D20000
(1693900880.394804) can0 601##4B1DA03FE04003E17317A170216302225C4D20000
(1693900880.394805) can0 101##4B10A160000000000
(1693900880.394805) can0 101##4B10A160000000000
(1693900880.410600) can0 303##49E00FF00FFFF01000FFF000FFFFF000000000000
(1693900880.410600) can0 303##49E00FF00FFFF01000FFF000FFFFF000000000000
(1693900880.436438) can0 010##444020040064B56
(1693900880.436438) can0 010##444020040064B56
(1693900880.444773) can0 601##4B2DA03FE04003E17317A170216302225BAD20000
(1693900880.444773) can0 601##4B2DA03FE04003E17317A170216302225BAD20000
(1693900880.444773) can0 101##4B20A160000000000
(1693900880.444773) can0 101##4B20A160000000000
(1693900880.444774) can0 201##4560A01
(1693900880.444774) can0 201##4560A01
(1693900880.460622) can0 303##49F00FF00FFFF01000FFF000FFFFF000000000000
(1693900880.460622) can0 303##49F00FF00FFFF01000FFF000FFFFF000000000000
(1693900880.486417) can0 010##44502004006F337
(1693900880.486417) can0 010##44502004006F337
(1693900880.494702) can0 601##4B3DA03FE04003E17317A170216302225C4D20000
(1693900880.494702) can0 601##4B3DA03FE04003E17317A170216302225C4D20000
(1693900880.494703) can0 101##4B30A160000000000
(1693900880.494703) can0 101##4B30A160000000000
(1693900880.510602) can0 303##4A000FF00FFFF01000FFF000FFFFF000000000000
(1693900880.510602) can0 303##4A000FF00FFFF01000FFF000FFFFF000000000000
(1693900880.537911) can0 010##446020040062BB5
(1693900880.537911) can0 010##446020040062BB5
(1693900880.544755) can0 601##4B4DA03FE04003E17317A170216302225C4D20000
(1693900880.544755) can0 601##4B4DA03FE04003E17317A170216302225C4D20000
(1693900880.544757) can0 101##4B40A160000000000
(1693900880.544757) can0 101##4B40A160000000000
(1693900880.560549) can0 303##4A100FF00FFFF01000FFF000FFFFF000000000000
(1693900880.560549) can0 303##4A100FF00FFFF01000FFF000FFFFF000000000000
(1693900880.586150) can0 010##4470200400693D4
(1693900880.586150) can0 010##4470200400693D4
(1693900880.594825) can0 601##4B5DA03FE04003E17317A170216302225C4D20000
(1693900880.594825) can0 601##4B5DA03FE04003E17317A170216302225C4D20000
(1693900880.594825) can0 101##4B50A160000000000
(1693900880.594825) can0 101##4B50A160000000000
(1693900880.610658) can0 303##4A200FF00FFFF01000FFF000FFFFF000000000000
(1693900880.610658) can0 303##4A200FF00FFFF01000FFF000FFFFF000000000000
(1693900880.636143) can0 010##44802004006193D
(1693900880.636143) can0 010##44802004006193D
(1693900880.644841) can0 601##4B6DA03FE04005217318E170216302225C4D20000
(1693900880.644841) can0 601##4B6DA03FE04005217318E170216302225C4D20000
(1693900880.644841) can0 101##4B60A160000000000
(1693900880.644841) can0 101##4B60A160000000000
(1693900880.660635) can0 303##4A300FF00FFFF01000FFF000FFFFF000000000000
(1693900880.660635) can0 303##4A300FF00FFFF01000FFF000FFFFF000000000000
(1693900880.686318) can0 010##44902004006A15C
(1693900880.686318) can0 010##44902004006A15C
(1693900880.694823) can0 601##4B7DA03FE04003E17315C170216302225BAD20000
(1693900880.694823) can0 601##4B7DA03FE04003E17315C170216302225BAD20000
(1693900880.694824) can0 101##4B70A160000000000
(1693900880.694824) can0 101##4B70A160000000000
(1693900880.694824) can0 201##4570A01
(1693900880.694824) can0 201##4570A01
(1693900880.710649) can0 303##4A400FF00FFFF01000FFF000FFFFF000000000000
(1693900880.710649) can0 303##4A400FF00FFFF01000FFF000FFFFF000000000000
(1693900880.739126) can0 010##44A0200400679DE
(1693900880.739126) can0 010##44A0200400679DE
(1693900880.744792) can0 601##4B8DA03FE04005217317A170216302225BAD20000
(1693900880.744792) can0 601##4B8DA03FE04005217317A170216302225BAD20000
(1693900880.744793) can0 101##4B80A160000000000
(1693900880.744793) can0 101##4B80A160000000000
(1693900880.760513) can0 303##4A500FF00FFFF01000FFF000FFFFF000000000000
(1693900880.760513) can0 303##4A500FF00FFFF01000FFF000FFFFF000000000000
(1693900880.786371) can0 010##44B02004006C1BF
(1693900880.786371) can0 010##44B02004006C1BF
(1693900880.794828) can0 601##4B9DA03FE04003E17317A170216302225C4D20000
(1693900880.794828) can0 601##4B9DA03FE04003E17317A170216302225C4D20000
(1693900880.794829) can0 101##4B90A160000000000
(1693900880.794829) can0 101##4B90A160000000000
(1693900880.810618) can0 303##4A600FF00FFFF01000FFF000FFFFF000000000000
(1693900880.810618) can0 303##4A600FF00FFFF01000FFF000FFFFF000000000000
(1693900880.815229) can0 202##5D60A0DAC0A0DB000000019000E000001
(1693900880.815229) can0 202##5D60A0DAC0A0DB000000019000E000001
(1693900880.835999) can0 010##44C02004006D8FB
(1693900880.835999) can0 010##44C02004006D8FB
(1693900880.844796) can0 601##4BADA03FE04003E17315C170216302225BAD20000
(1693900880.844796) can0 601##4BADA03FE04003E17315C170216302225BAD20000
(1693900880.844797) can0 101##4BA0A160000000000
(1693900880.844797) can0 101##4BA0A160000000000
(1693900880.860566) can0 303##4A700FF00FFFF01000FFF000FFFFF000000000000
(1693900880.860566) can0 303##4A700FF00FFFF01000FFF000FFFFF000000000000
(1693900880.886201) can0 010##44D02004006609A
(1693900880.886201) can0 010##44D02004006609A
(1693900880.894837) can0 601##4BBDA03FE04003E173152170216302225C4D20000
(1693900880.894837) can0 601##4BBDA03FE04003E173152170216302225C4D20000
(1693900880.894838) can0 101##4BB0A160000000000
(1693900880.894838) can0 101##4BB0A160000000000
(1693900880.910570) can0 303##4A800FF00FFFF01000FFF000FFFFF000000000000
(1693900880.910570) can0 303##4A800FF00FFFF01000FFF000FFFFF000000000000
(1693900880.938932) can0 010##44E02004006B818
(1693900880.938932) can0 010##44E02004006B818
(1693900880.944776) can0 601##4BCDA03FE04003E1731AC170216302225C4D20000
(1693900880.944776) can0 601##4BCDA03FE04003E1731AC170216302225C4D20000
(1693900880.944777) can0 101##4BC0A160000000000
(1693900880.944777) can0 101##4BC0A160000000000
(1693900880.944777) can0 201##4580A01
(1693900880.944777) can0 201##4580A01
(1693900880.960587) can0 303##4A900FF00FFFF01000FFF000FFFFF000000000000
(1693900880.960587) can0 303##4A900FF00FFFF01000FFF000FFFFF000000000000
(1693900880.986151) can0 010##44F020040060079
(1693900880.986151) can0 010##44F020040060079
(1693900880.994857) can0 601##4BDDA03FE04003E17317A170216302225C4D20000
(1693900880.994857) can0 601##4BDDA03FE04003E17317A170216302225C4D20000
(1693900880.994858) can0 101##4BD0A160000000000
(1693900880.994858) can0 101##4BD0A160000000000
(1693900881.010615) can0 303##4AA00FF00FFFF01000FFF000FFFFF000000000000
(1693900881.010615) can0 303##4AA00FF00FFFF01000FFF000FFFFF000000000000
(1693900881.036268) can0 010##45002004006BDEB
(1693900881.036268) can0 010##45002004006BDEB
(1693900881.044866) can0 601##4BEDA03FE04003E173170170216302225C4D20000
(1693900881.044866) can0 601##4BEDA03FE04003E173170170216302225C4D20000
(1693900881.044867) can0 101##4BE0A160000000000
(1693900881.044867) can0 101##4BE0A160000000000
(1693900881.060576) can0 303##4AB00FF00FFFF01000FFF000FFFFF000000000000
(1693900881.060576) can0 303##4AB00FF00FFFF01000FFF000FFFFF000000000000
(1693900881.085936) can0 010##45102004006058A
(1693900881.085936) can0 010##45102004006058A
(1693900881.094771) can0 601##4BFDA03FE04003E17317A170216302225BAD20000
(1693900881.094771) can0 601##4BFDA03FE04003E17317A170216302225BAD20000
(1693900881.094772) can0 101##4BF0A160000000000
(1693900881.094772) can0 101##4BF0A160000000000
(1693900881.110547) can0 303##4AC00FF00FFFF01000FFF000FFFFF000000000000
(1693900881.110547) can0 303##4AC00FF00FFFF01000FFF000FFFFF000000000000
(1693900881.136301) can0 010##45202004006DD08
(1693900881.136301) can0 010##45202004006DD08
(1693900881.144771) can0 601##4C0DA03FE04005217317A170216302225C4D20000
(1693900881.144771) can0 601##4C0DA03FE04005217317A170216302225C4D20000
(1693900881.144771) can0 101##4C00A160000000000
(1693900881.144771) can0 101##4C00A160000000000
(1693900881.160601) can0 303##4AD00FF00FFFF01000FFF000FFFFF000000000000
(1693900881.160601) can0 303##4AD00FF00FFFF01000FFF000FFFFF000000000000
(1693900881.186260) can0 010##453020040066569
(1693900881.186260) can0 010##453020040066569
(1693900881.194872) can0 601##4C1DA03FE04003E17318E170216302225BAD20000
(1693900881.194872) can0 601##4C1DA03FE04003E17318E170216302225BAD20000
(1693900881.194873) can0 101##4C10A160000000000
(1693900881.194873) can0 101##4C10A160000000000
(1693900881.194873) can0 201##4590A01
(1693900881.194873) can0 201##4590A01
(1693900881.210642) can0 303##4AE00FF00FFFF01000FFF000FFFFF000000000000
(1693900881.210642) can0 303##4AE00FF00FFFF01000FFF000FFFFF000000000000
(1693900881.237163) can0 010##454020040067C2D
(1693900881.237163) can0 010##454020040067C2D
(1693900881.244848) can0 601##4C2DA03FE04003E17317A170216302225BAD20000
(1693900881.244848) can0 601##4C2DA03FE04003E17317A170216302225BAD20000
(1693900881.244849) can0 101##4C20A160000000000
(1693900881.244849) can0 101##4C20A160000000000
(1693900881.260523) can0 303##4AF00FF00FFFF01000FFF000FFFFF000000000000
(1693900881.260523) can0 303##4AF00FF00FFFF01000FFF000FFFFF000000000000
(1693900881.286132) can0 010##45502004006C44C
(1693900881.286132) can0 010##45502004006C44C
(1693900881.294876) can0 601##4C3DA03FE04005C173166170216312225C4D20000
(1693900881.294876) can0 601##4C3DA03FE04005C173166170216312225C4D20000
(1693900881.294877) can0 101##4C30A160000000000
(1693900881.294877) can0 101##4C30A160000000000
(1693900881.310632) can0 303##4B000FF00FFFF01000FFF000FFFFF000000000000
(1693900881.310632) can0 303##4B000FF00FFFF01000FFF000FFFFF000000000000
(1693900881.335811) can0 010##456020040061CCE
(1693900881.335811) can0 010##456020040061CCE
(1693900881.344824) can0 601##4C4DA03FE04003E17318E170216312225C4D20000
(1693900881.344824) can0 601##4C4DA03FE04003E17318E170216312225C4D20000
(1693900881.344824) can0 101##4C40A160000000000
(1693900881.344824) can0 101##4C40A160000000000
(1693900881.360551) can0 303##4B100FF00FFFF01000FFF000FFFFF000000000000
(1693900881.360551) can0 303##4B100FF00FFFF01000FFF000FFFFF000000000000
(1693900881.386144) can0 010##45702004006A4AF
(1693900881.386144) can0 010##45702004006A4AF
(1693900881.394903) can0 601##4C5DA03FE04003E17315C170216312225C4D20000
(1693900881.394903) can0 601##4C5DA03FE04003E17315C170216312225C4D20000
(1693900881.394903) can0 101##4C50A160000000000
(1693900881.394903) can0 101##4C50A160000000000
(1693900881.410553) can0 303##4B200FF00FFFF01000FFF000FFFFF000000000000
(1693900881.410553) can0 303##4B200FF00FFFF01000FFF000FFFFF000000000000
(1693900881.435883) can0 010##458020040062E46
(1693900881.435883) can0 010##458020040062E46
(1693900881.444872) can0 601##4C6DA03FE04003E17317A170216312225C4D20000
(1693900881.444872) can0 601##4C6DA03FE04003E17317A170216312225C4D20000
(1693900881.444873) can0 101##4C60A160000000000
(1693900881.444873) can0 101##4C60A160000000000
(1693900881.444874) can0 201##45A0A01
(1693900881.444874) can0 201##45A0A01
(1693900881.460570) can0 303##4B300FF00FFFF01000FFF000FFFFF000000000000
(1693900881.460570) can0 303##4B300FF00FFFF01000FFF000FFFFF000000000000
(1693900881.486175) can0 010##459020040069627
(1693900881.486175) can0 010##459020040069627
(1693900881.494873) can0 601##4C7DA03FE04003E173166170216312225BAD20000
(1693900881.494873) can0 601##4C7DA03FE04003E173166170216312225BAD20000
(1693900881.494874) can0 101##4C70A160000000000
(1693900881.494874) can0 101##4C70A160000000000
(1693900881.510660) can0 303##4B400FF00FFFF01000FFF000FFFFF000000000000
(1693900881.510660) can0 303##4B400FF00FFFF01000FFF000FFFFF000000000000
(1693900881.537889) can0 010##45A020040064EA5
(1693900881.537889) can0 010##45A020040064EA5
(1693900881.544911) can0 601##4C8DA03FE04003E173166170216312225C4D20000
(1693900881.544911) can0 601##4C8DA03FE04003E173166170216312225C4D20000
(1693900881.544911) can0 101##4C80A160000000000
(1693900881.544911) can0 101##4C80A160000000000
(1693900881.560607) can0 303##4B500FF00FFFF01000FFF000FFFFF000000000000
(1693900881.560607) can0 303##4B500FF00FFFF01000FFF000FFFFF000000000000
(1693900881.586119) can0 010##45B02004006F6C4
(1693900881.586119) can0 010##45B02004006F6C4
(1693900881.594902) can0 601##4C9DA03FE04003E17317A170216312225BAD20000
(1693900881.594902) can0 601##4C9DA03FE04003E17317A170216312225BAD20000
(1693900881.594903) can0 101##4C90A160000000000
(1693900881.594903) can0 101##4C90A160000000000
(1693900881.610529) can0 303##4B600FF00FFFF01000FFF000FFFFF000000000000
(1693900881.610529) can0 303##4B600FF00FFFF01000FFF000FFFFF000000000000
(1693900881.637489) can0 010##45C02004006EF80
(1693900881.637489) can0 010##45C02004006EF80
(1693900881.644899) can0 601##4CADA03FE04003E17317A170216312225BAD20000
(1693900881.644899) can0 601##4CADA03FE04003E17317A170216312225BAD20000
(1693900881.644900) can0 101##4CA0A160000000000
(1693900881.644900) can0 101##4CA0A160000000000
(1693900881.660553) can0 303##4B700FF00FFFF01000FFF000FFFFF000000000000
(1693900881.660553) can0 303##4B700FF00FFFF01000FFF000FFFFF000000000000
(1693900881.687411) can0 010##45D0200400657E1
(1693900881.687411) can0 010##45D0200400657E1
(1693900881.694902) can0 601##4CBDA03FE04003E17317A170216312225BAD20000
(1693900881.694902) can0 601##4CBDA03FE04003E17317A170216312225BAD20000
(1693900881.694903) can0 101##4CB0A160000000000
(1693900881.694903) can0 101##4CB0A160000000000
(1693900881.694903) can0 201##45B0A01
(1693900881.694903) can0 201##45B0A01
(1693900881.710613) can0 303##4B800FF00FFFF01000FFF000FFFFF000000000000
(1693900881.710613) can0 303##4B800FF00FFFF01000FFF000FFFFF000000000000
(1693900881.741240) can0 010##45E020040068F63
(1693900881.741240) can0 010##45E020040068F63
(1693900881.744889) can0 601##4CCDA03FE040052173166170216312225C4D20000
(1693900881.744889) can0 601##4CCDA03FE040052173166170216312225C4D20000
(1693900881.744890) can0 101##4CC0A160000000000
(1693900881.744890) can0 101##4CC0A160000000000
(1693900881.760617) can0 303##4B900FF00FFFF01000FFF000FFFFF000000000000
(1693900881.760617) can0 303##4B900FF00FFFF01000FFF000FFFFF000000000000
(1693900881.786190) can0 010##45F020040063702
(1693900881.786190) can0 010##45F020040063702
(1693900881.794933) can0 601##4CDDA03FE04003E173170170216312225C4D20000
(1693900881.794933) can0 601##4CDDA03FE04003E173170170216312225C4D20000
(1693900881.794934) can0 101##4CD0A160000000000
(1693900881.794934) can0 101##4CD0A160000000000
(1693900881.810616) can0 303##4BA00FF00FFFF01000FFF000FFFFF000000000000
(1693900881.810616) can0 303##4BA00FF00FFFF01000FFF000FFFFF000000000000
(1693900881.815776) can0 202##5D70A0DAC090DA400000019000E000001
(1693900881.815776) can0 202##5D70A0DAC090DA400000019000E000001
(1693900881.838281) can0 010##46002004006E466
(1693900881.838281) can0 010##46002004006E466
(1693900881.844927) can0 601##4CEDA03FE04004817317A170216312225BAD20000
(1693900881.844927) can0 601##4CEDA03FE04004817317A170216312225BAD20000
(1693900881.844927) can0 101##4CE0A160000000000
(1693900881.844927) can0 101##4CE0A160000000000
(1693900881.860557) can0 303##4BB00FF00FFFF01000FFF000FFFFF000000000000
(1693900881.860557) can0 303##4BB00FF00FFFF01000FFF000FFFFF000000000000
(1693900881.885818) can0 010##461020040065C07
(1693900881.885818) can0 010##461020040065C07
(1693900881.894963) can0 601##4CFDA03FE04003E173170170216312225BAD20000
(1693900881.894963) can0 601##4CFDA03FE04003E173170170216312225BAD20000
(1693900881.894964) can0 101##4CF0A160000000000
(1693900881.894964) can0 101##4CF0A160000000000
(1693900881.910574) can0 303##4BC00FF00FFFF01000FFF000FFFFF000000000000
(1693900881.910574) can0 303##4BC00FF00FFFF01000FFF000FFFFF000000000000
(1693900881.935791) can0 010##462020040068485
(1693900881.935791) can0 010##462020040068485
(1693900881.944902) can0 601##4D0DA03FE04003E17317A170216312225BAD20000
(1693900881.944902) can0 601##4D0DA03FE04003E17317A170216312225BAD20000
(1693900881.944903) can0 101##4D00A160000000000
(1693900881.944903) can0 101##4D00A160000000000
(1693900881.944904) can0 201##45C0A01
(1693900881.944904) can0 201##45C0A01
(1693900881.960595) can0 303##4BD00FF00FFFF01000FFF000FFFFF000000000000
(1693900881.960595) can0 303##4BD00FF00FFFF01000FFF000FFFFF000000000000
(1693900881.985775) can0 010##463020040063CE4
(1693900881.985775) can0 010##463020040063CE4
(1693900881.994956) can0 601##4D1DA03FE040048173198170216312225BAD20000
(1693900881.994956) can0 601##4D1DA03FE040048173198170216312225BAD20000
(1693900881.994957) can0 101##4D10A160000000000
(1693900881.994957) can0 101##4D10A160000000000
(1693900882.010551) can0 303##4BE00FF00FFFF01000FFF000FFFFF000000000000
(1693900882.010551) can0 303##4BE00FF00FFFF01000FFF000FFFFF000000000000
(1693900882.038792) can0 010##4640200400625A0
(1693900882.038792) can0 010##4640200400625A0
(1693900882.044925) can0 601##4D2DA03FE04005217317A170216312225C4D20000
(1693900882.044925) can0 601##4D2DA03FE04005217317A170216312225C4D20000
(1693900882.044925) can0 101##4D20A160000000000
(1693900882.044925) can0 101##4D20A160000000000
(1693900882.060615) can0 303##4BF00FF00FFFF01000FFF000FFFFF000000000000
(1693900882.060615) can0 303##4BF00FF00FFFF01000FFF000FFFFF000000000000
(1693900882.085948) can0 010##465020040069DC1
(1693900882.085948) can0 010##465020040069DC1
(1693900882.094958) can0 601##4D3DA03FE04003E17315C170216312225C4D20000
(1693900882.094958) can0 601##4D3DA03FE04003E17315C170216312225C4D20000
(1693900882.094959) can0 101##4D30A160000000000
(1693900882.094959) can0 101##4D30A160000000000
(1693900882.110551) can0 303##4C000FF00FFFF01000FFF000FFFFF000000000000
(1693900882.110551) can0 303##4C000FF00FFFF01000FFF000FFFFF000000000000
(1693900882.135684) can0 010##466020040064543
(1693900882.135684) can0 010##466020040064543
(1693900882.144935) can0 601##4D4DA03FE04003E17317A170216312225C4D20000
(1693900882.144935) can0 601##4D4DA03FE04003E17317A170216312225C4D20000
(1693900882.144936) can0 101##4D40A160000000000
(1693900882.144936) can0 101##4D40A160000000000
(1693900882.160578) can0 303##4C100FF00FFFF01000FFF000FFFFF000000000000
(1693900882.160578) can0 303##4C100FF00FFFF01000FFF000FFFFF000000000000
(1693900882.185736) can0 010##46702004006FD22
(1693900882.185736) can0 010##46702004006FD22
(1693900882.194968) can0 601##4D5DA03FE04003E17317A170216312225BAD20000
(1693900882.194968) can0 601##4D5DA03FE04003E17317A170216312225BAD20000
(1693900882.194969) can0 101##4D50A160000000000
(1693900882.194969) can0 101##4D50A160000000000
(1693900882.194969) can0 201##45D0A01
(1693900882.194969) can0 201##45D0A01
(1693900882.210634) can0 303##4C200FF00FFFF01000FFF000FFFFF000000000000
(1693900882.210634) can0 303##4C200FF00FFFF01000FFF000FFFFF000000000000
(1693900882.235983) can0 010##4680200400677CB
(1693900882.235983) can0 010##4680200400677CB
(1693900882.244896) can0 601##4D6DA03FE04003E17315C170216312226BAD20000
(1693900882.244896) can0 601##4D6DA03FE04003E17315C170216312226BAD20000
(1693900882.244898) can0 101##4D60A160000000000
(1693900882.244898) can0 101##4D60A160000000000
(1693900882.260581) can0 303##4C300FF00FFFF01000FFF000FFFFF000000000000
(1693900882.260581) can0 303##4C300FF00FFFF01000FFF000FFFFF000000000000
(1693900882.285658) can0 010##46902004006CFAA
(1693900882.285658) can0 010##46902004006CFAA
(1693900882.294879) can0 601##4D7DA03FE04004817317A170216312226BAD20000
(1693900882.294879) can0 601##4D7DA03FE04004817317A170216312226BAD20000
(1693900882.294880) can0 101##4D70A160000000000
(1693900882.294880) can0 101##4D70A160000000000
(1693900882.310677) can0 303##4C400FF00FFFF01000FFF000FFFFF000000000000
(1693900882.310677) can0 303##4C400FF00FFFF01000FFF000FFFFF000000000000
(1693900882.340654) can0 010##46A020040061728
(1693900882.340654) can0 010##46A020040061728
(1693900882.344947) can0 601##4D8DA03FE04003E17317A170216312226BAD20000
(1693900882.344947) can0 601##4D8DA03FE04003E17317A170216312226BAD20000
(1693900882.344948) can0 101##4D80A160000000000
(1693900882.344948) can0 101##4D80A160000000000
(1693900882.360522) can0 303##4C500FF00FFFF01000FFF000FFFFF000000000000
(1693900882.360522) can0 303##4C500FF00FFFF01000FFF000FFFFF000000000000
(1693900882.385619) can0 010##46B02004006AF49
(1693900882.385619) can0 010##46B02004006AF49
(1693900882.394894) can0 601##4D9DA03FE04005217317A170216312226C4D20000
(1693900882.394894) can0 601##4D9DA03FE04005217317A170216312226C4D20000
(1693900882.394895) can0 101##4D90A160000000000
(1693900882.394895) can0 101##4D90A160000000000
(1693900882.410589) can0 303##4C600FF00FFFF01000FFF000FFFFF000000000000
(1693900882.410589) can0 303##4C600FF00FFFF01000FFF000FFFFF000000000000
(1693900882.435459) can0 010##46C02004006B60D
(1693900882.435459) can0 010##46C02004006B60D
(1693900882.444956) can0 601##4DADA03FE04003E17317A170216312226C4D20000
(1693900882.444956) can0 601##4DADA03FE04003E17317A170216312226C4D20000
(1693900882.444957) can0 101##4DA0A160000000000
(1693900882.444957) can0 101##4DA0A160000000000
(1693900882.444958) can0 201##45E0A01
(1693900882.444958) can0 201##45E0A01
(1693900882.460577) can0 303##4C700FF00FFFF01000FFF000FFFFF000000000000
(1693900882.460577) can0 303##4C700FF00FFFF01000FFF000FFFFF000000000000
(1693900882.485648) can0 010##46D020040060E6C
(1693900882.485648) can0 010##46D020040060E6C
(1693900882.494974) can0 601##4DBDA03FE04003E17317A170216312226BAD20000
(1693900882.494974) can0 601##4DBDA03FE04003E17317A170216312226BAD20000
(1693900882.494976) can0 101##4DB0A160000000000
(1693900882.494976) can0 101##4DB0A160000000000
(1693900882.510594) can0 303##4C800FF00FFFF01000FFF000FFFFF000000000000
(1693900882.510594) can0 303##4C800FF00FFFF01000FFF000FFFFF000000000000
(1693900882.540459) can0 010##46E02004006D6EE
(1693900882.540459) can0 010##46E02004006D6EE
(1693900882.544976) can0 601##4DCDA03FE04003E17317A170216312226BAD20000
(1693900882.544976) can0 601##4DCDA03FE04003E17317A170216312226BAD20000
(1693900882.544977) can0 101##4DC0A160000000000
(1693900882.544977) can0 101##4DC0A160000000000
(1693900882.560592) can0 303##4C900FF00FFFF01000FFF000FFFFF000000000000
(1693900882.560592) can0 303##4C900FF00FFFF01000FFF000FFFFF000000000000
(1693900882.585593) can0 010##46F020040066E8F
(1693900882.585593) can0 010##46F020040066E8F
(1693900882.595006) can0 601##4DDDA03FE04003E17317A170216312226BAD20000
(1693900882.595006) can0 601##4DDDA03FE04003E17317A170216312226BAD20000
(1693900882.595007) can0 101##4DD0A160000000000
(1693900882.595007) can0 101##4DD0A160000000000
(1693900882.610607) can0 303##4CA00FF00FFFF01000FFF000FFFFF000000000000
(1693900882.610607) can0 303##4CA00FF00FFFF01000FFF000FFFFF000000000000
(1693900882.635379) can0 010##47002004006D31D
(1693900882.635379) can0 010##47002004006D31D
(1693900882.645031) can0 601##4DEDA03FE04003E173152170216312226BAD20000
(1693900882.645031) can0 601##4DEDA03FE04003E173152170216312226BAD20000
(1693900882.645032) can0 101##4DE0A160000000000
(1693900882.645032) can0 101##4DE0A160000000000
(1693900882.660574) can0 303##4CB00FF00FFFF01000FFF000FFFFF000000000000
(1693900882.660574) can0 303##4CB00FF00FFFF01000FFF000FFFFF000000000000
(1693900882.685598) can0 010##471020040066B7C
(1693900882.685598) can0 010##471020040066B7C
(1693900882.695011) can0 601##4DFDA03FE04004817317A170216312226BAD20000
(1693900882.695011) can0 601##4DFDA03FE04004817317A170216312226BAD20000
(1693900882.695013) can0 101##4DF0A160000000000
(1693900882.695013) can0 101##4DF0A160000000000
(1693900882.695015) can0 201##45F0A01
(1693900882.695015) can0 201##45F0A01
(1693900882.710638) can0 303##4CC00FF00FFFF01000FFF000FFFFF000000000000
(1693900882.710638) can0 303##4CC00FF00FFFF01000FFF000FFFFF000000000000
(1693900882.735521) can0 010##47202004006B3FE
(1693900882.735521) can0 010##47202004006B3FE
(1693900882.745017) can0 601##4E0DA03FE04004817317A170216312226BAD20000
(1693900882.745017) can0 601##4E0DA03FE04004817317A170216312226BAD20000
(1693900882.745018) can0 101##4E00A160000000000
(1693900882.745018) can0 101##4E00A160000000000
(1693900882.760582) can0 303##4CD00FF00FFFF01000FFF000FFFFF000000000000
(1693900882.760582) can0 303##4CD00FF00FFFF01000FFF000FFFFF000000000000
(1693900882.785551) can0 010##473020040060B9F
(1693900882.785551) can0 010##473020040060B9F
(1693900882.795030) can0 601##4E1DA03FE04003E17318E170216312226BAD20000
(1693900882.795030) can0 601##4E1DA03FE04003E17318E170216312226BAD20000
(1693900882.795031) can0 101##4E10A160000000000
(1693900882.795031) can0 101##4E10A160000000000
(1693900882.810587) can0 303##4CE00FF00FFFF01000FFF000FFFFF000000000000
(1693900882.810587) can0 303##4CE00FF00FFFF01000FFF000FFFFF000000000000
(1693900882.816361) can0 202##5D80A0DAC090DA400000019000E000001
(1693900882.816361) can0 202##5D80A0DAC090DA400000019000E000001
(1693900882.835198) can0 010##4740200400612DB
(1693900882.835198) can0 010##4740200400612DB
(1693900882.844976) can0 601##4E2DA03FE04005C17317A170216312226C4D20000
(1693900882.844976) can0 601##4E2DA03FE04005C17317A170216312226C4D20000
(1693900882.844977) can0 101##4E20A160000000000
(1693900882.844977) can0 101##4E20A160000000000
(1693900882.860570) can0 303##4CF00FF00FFFF01000FFF000FFFFF000000000000
(1693900882.860570) can0 303##4CF00FF00FFFF01000FFF000FFFFF000000000000
(1693900882.885484) can0 010##47502004006AABA
(1693900882.885484) can0 010##47502004006AABA
