(1693914174.866493) can0 601##452DA030E04000000000000032525252500000000
(1693914174.866493) can0 601##452DA030E04000000000000032525252500000000
(1693914174.866494) can0 101##45205020000000000
(1693914174.866494) can0 101##45205020000000000
(1693914174.883466) can0 010##4A202004006F290
(1693914174.883466) can0 010##4A202004006F290
(1693914174.894695) can0 303##43F00FF00FFFF01000FFF000FFFFF000000000000
(1693914174.894695) can0 303##43F00FF00FFFF01000FFF000FFFFF000000000000
(1693914174.916622) can0 601##453DA030E04000000000000032525252500000000
(1693914174.916622) can0 601##453DA030E04000000000000032525252500000000
(1693914174.916623) can0 101##45305020000000000
(1693914174.916623) can0 101##45305020000000000
(1693914174.933533) can0 010##4A3020040064AF1
(1693914174.933533) can0 010##4A3020040064AF1
(1693914174.944704) can0 303##44000FF00FFFF01000FFF000FFFFF000000000000
(1693914174.944704) can0 303##44000FF00FFFF01000FFF000FFFFF000000000000
(1693914174.966413) can0 601##454DA030E04000000000000032525252500000000
(1693914174.966413) can0 601##454DA030E04000000000000032525252500000000
(1693914174.966414) can0 101##45405020000000000
(1693914174.966414) can0 101##45405020000000000
(1693914174.983423) can0 010##4A40200400653B5
(1693914174.983423) can0 010##4A40200400653B5
(1693914174.994695) can0 303##44100FF00FFFF01000FFF000FFFFF000000000000
(1693914174.994695) can0 303##44100FF00FFFF01000FFF000FFFFF000000000000
(1693914175.016638) can0 601##455DA030E04000000000000032525252500000000
(1693914175.016638) can0 601##455DA030E04000000000000032525252500000000
(1693914175.016640) can0 101##45505020000000000
(1693914175.016640) can0 101##45505020000000000
(1693914175.033447) can0 010##4A502004006EBD4
(1693914175.033447) can0 010##4A502004006EBD4
(1693914175.044936) can0 303##44200FF00FFFF01000FFF000FFFFF000000000000
(1693914175.044936) can0 303##44200FF00FFFF01000FFF000FFFFF000000000000
(1693914175.067000) can0 601##456DA030E04000000000000032525252500000000
(1693914175.067000) can0 601##456DA030E04000000000000032525252500000000
(1693914175.067002) can0 101##45605020000000000
(1693914175.067002) can0 101##45605020000000000
(1693914175.067002) can0 201##4AA4601
(1693914175.067002) can0 201##4AA4601
(1693914175.083400) can0 010##4A6020040063356
(1693914175.083400) can0 010##4A6020040063356
(1693914175.094790) can0 303##44300FF00FFFF01000FFF000FFFFF000000000000
(1693914175.094790) can0 303##44300FF00FFFF01000FFF000FFFFF000000000000
(1693914175.116623) can0 601##457DA030E04000000000000032525252500000000
(1693914175.116623) can0 601##457DA030E04000000000000032525252500000000
(1693914175.116625) can0 101##45705020000000000
(1693914175.116625) can0 101##45705020000000000
(1693914175.133195) can0 010##4A7020040068B37
(1693914175.133195) can0 010##4A7020040068B37
(1693914175.144803) can0 303##44400FF00FFFF01000FFF000FFFFF000000000000
(1693914175.144803) can0 303##44400FF00FFFF01000FFF000FFFFF000000000000
(1693914175.166648) can0 601##458DA030E04000000000000032525252500000000
(1693914175.166648) can0 601##458DA030E04000000000000032525252500000000
(1693914175.166649) can0 101##45805020000000000
(1693914175.166649) can0 101##45805020000000000
(1693914175.183744) can0 010##4A80200400601DE
(1693914175.183744) can0 010##4A80200400601DE
(1693914175.194809) can0 303##44500FF00FFFF01000FFF000FFFFF000000000000
(1693914175.194809) can0 303##44500FF00FFFF01000FFF000FFFFF000000000000
(1693914175.216995) can0 601##459DA030E04000000000000032525252500000000
(1693914175.216995) can0 601##459DA030E04000000000000032525252500000000
(1693914175.216996) can0 101##45905020000000000
(1693914175.216996) can0 101##45905020000000000
(1693914175.233387) can0 010##4A902004006B9BF
(1693914175.233387) can0 010##4A902004006B9BF
(1693914175.244760) can0 303##44600FF00FFFF01000FFF000FFFFF000000000000
(1693914175.244760) can0 303##44600FF00FFFF01000FFF000FFFFF000000000000
(1693914175.266627) can0 601##45ADA030E04000000000000032525252500000000
(1693914175.266627) can0 601##45ADA030E04000000000000032525252500000000
(1693914175.266628) can0 101##45A05020000000000
(1693914175.266628) can0 101##45A05020000000000
(1693914175.283284) can0 010##4AA02004006613D
(1693914175.283284) can0 010##4AA02004006613D
(1693914175.294689) can0 303##44700FF00FFFF01000FFF000FFFFF000000000000
(1693914175.294689) can0 303##44700FF00FFFF01000FFF000FFFFF000000000000
(1693914175.316580) can0 601##45BDA030E04000000000000032525252500000000
(1693914175.316580) can0 601##45BDA030E04000000000000032525252500000000
(1693914175.316581) can0 101##45B05020000000000
(1693914175.316581) can0 101##45B05020000000000
(1693914175.316582) can0 201##4AB4601
(1693914175.316582) can0 201##4AB4601
(1693914175.333170) can0 010##4AB02004006D95C
(1693914175.333170) can0 010##4AB02004006D95C
(1693914175.344686) can0 303##44800FF00FFFF01000FFF000FFFFF000000000000
(1693914175.344686) can0 303##44800FF00FFFF01000FFF000FFFFF000000000000
(1693914175.366608) can0 601##45CDA030E04000000000000032525252500000000
(1693914175.366608) can0 601##45CDA030E04000000000000032525252500000000
(1693914175.366609) can0 101##45C05020000000000
(1693914175.366609) can0 101##45C05020000000000
(1693914175.380620) can0 202##52B465FB4455F52001E0019000D000001
(1693914175.380620) can0 202##52B465FB4455F52001E0019000D000001
(1693914175.383275) can0 010##4AC02004006C018
(1693914175.383275) can0 010##4AC02004006C018
(1693914175.394665) can0 303##44900FF00FFFF01000FFF000FFFFF000000000000
(1693914175.394665) can0 303##44900FF00FFFF01000FFF000FFFFF000000000000
(1693914175.416522) can0 601##45DDA030E04000000000000032525252500000000
(1693914175.416522) can0 601##45DDA030E04000000000000032525252500000000
(1693914175.416524) can0 101##45D05020000000000
(1693914175.416524) can0 101##45D05020000000000
(1693914175.433182) can0 010##4AD020040067879
(1693914175.433182) can0 010##4AD020040067879
(1693914175.444614) can0 303##44A00FF00FFFF01000FFF000FFFFF000000000000
(1693914175.444614) can0 303##44A00FF00FFFF01000FFF000FFFFF000000000000
(1693914175.466531) can0 601##45EDA030E04000000000000032525252500000000
(1693914175.466531) can0 601##45EDA030E04000000000000032525252500000000
(1693914175.466531) can0 101##45E05020000000000
(1693914175.466531) can0 101##45E05020000000000
(1693914175.483180) can0 010##4AE02004006A0FB
(1693914175.483180) can0 010##4AE02004006A0FB
(1693914175.494630) can0 303##44B00FF00FFFF01000FFF000FFFFF000000000000
(1693914175.494630) can0 303##44B00FF00FFFF01000FFF000FFFFF000000000000
(1693914175.516670) can0 601##45FDA030E04000000000000032525252500000000
(1693914175.516670) can0 601##45FDA030E04000000000000032525252500000000
(1693914175.516671) can0 101##45F05020000000000
(1693914175.516671) can0 101##45F05020000000000
(1693914175.533135) can0 010##4AF02004006189A
(1693914175.533135) can0 010##4AF02004006189A
(1693914175.544643) can0 303##44C00FF00FFFF01000FFF000FFFFF000000000000
(1693914175.544643) can0 303##44C00FF00FFFF01000FFF000FFFFF000000000000
(1693914175.566490) can0 601##460DA030E04000000000000032525252500000000
(1693914175.566490) can0 601##460DA030E04000000000000032525252500000000
(1693914175.566491) can0 101##46005020000000000
(1693914175.566491) can0 101##46005020000000000
(1693914175.566492) can0 201##4AC4601
(1693914175.566492) can0 201##4AC4601
(1693914175.583105) can0 010##4B002004006A508
(1693914175.583105) can0 010##4B002004006A508
(1693914175.594609) can0 303##44D00FF00FFFF01000FFF000FFFFF000000000000
(1693914175.594609) can0 303##44D00FF00FFFF01000FFF000FFFFF000000000000
(1693914175.616611) can0 601##461DA030E04000000000000032525252500000000
(1693914175.616611) can0 601##461DA030E04000000000000032525252500000000
(1693914175.616612) can0 101##46105020000000000
(1693914175.616612) can0 101##46105020000000000
(1693914175.633131) can0 010##4B1020040061D69
(1693914175.633131) can0 010##4B1020040061D69
(1693914175.644626) can0 303##44E00FF00FFFF01000FFF000FFFFF000000000000
(1693914175.644626) can0 303##44E00FF00FFFF01000FFF000FFFFF000000000000
(1693914175.666629) can0 601##462DA030E04000000000000032525252500000000
(1693914175.666629) can0 601##462DA030E04000000000000032525252500000000
(1693914175.666630) can0 101##46205020000000000
(1693914175.666630) can0 101##46205020000000000
(1693914175.683173) can0 010##4B202004006C5EB
(1693914175.683173) can0 010##4B202004006C5EB
(1693914175.694702) can0 303##44F00FF00FFFF01000FFF000FFFFF000000000000
(1693914175.694702) can0 303##44F00FF00FFFF01000FFF000FFFFF000000000000
(1693914175.716545) can0 601##463DA030E04000000000000032525252500000000
(1693914175.716545) can0 601##463DA030E04000000000000032525252500000000
(1693914175.716547) can0 101##46305020000000000
(1693914175.716547) can0 101##46305020000000000
(1693914175.733024) can0 010##4B3020040067D8A
(1693914175.733024) can0 010##4B3020040067D8A
(1693914175.744722) can0 303##45000FF00FFFF01000FFF000FFFFF000000000000
(1693914175.744722) can0 303##45000FF00FFFF01000FFF000FFFFF000000000000
(1693914175.766622) can0 601##464DA030E04000000000000032525252500000000
(1693914175.766622) can0 601##464DA030E04000000000000032525252500000000
(1693914175.766624) can0 101##46405020000000000
(1693914175.766624) can0 101##46405020000000000
(1693914175.783173) can0 010##4B40200400664CE
(1693914175.783173) can0 010##4B40200400664CE
(1693914175.794606) can0 303##45100FF00FFFF01000FFF000FFFFF000000000000
(1693914175.794606) can0 303##45100FF00FFFF01000FFF000FFFFF000000000000
(1693914175.816622) can0 601##465DA030E04000000000000032525252500000000
(1693914175.816622) can0 601##465DA030E04000000000000032525252500000000
(1693914175.816623) can0 101##46505020000000000
(1693914175.816623) can0 101##46505020000000000
(1693914175.816624) can0 201##4AD4601
(1693914175.816624) can0 201##4AD4601
(1693914175.833149) can0 010##4B502004006DCAF
(1693914175.833149) can0 010##4B502004006DCAF
(1693914175.844648) can0 303##45200FF00FFFF01000FFF000FFFFF000000000000
(1693914175.844648) can0 303##45200FF00FFFF01000FFF000FFFFF000000000000
(1693914175.866702) can0 601##466DA030E04000000000000032525252500000000
(1693914175.866702) can0 601##466DA030E04000000000000032525252500000000
(1693914175.866704) can0 101##46605020000000000
(1693914175.866704) can0 101##46605020000000000
(1693914175.883188) can0 010##4B602004006042D
(1693914175.883188) can0 010##4B602004006042D
(1693914175.894799) can0 303##45300FF00FFFF01000FFF000FFFFF000000000000
(1693914175.894799) can0 303##45300FF00FFFF01000FFF000FFFFF000000000000
(1693914175.916617) can0 601##467DA030E04000000000000032525252500000000
(1693914175.916617) can0 601##467DA030E04000000000000032525252500000000
(1693914175.916619) can0 101##46705020000000000
(1693914175.916619) can0 101##46705020000000000
(1693914175.933127) can0 010##4B702004006BC4C
(1693914175.933127) can0 010##4B702004006BC4C
(1693914175.944682) can0 303##45400FF00FFFF01000FFF000FFFFF000000000000
(1693914175.944682) can0 303##45400FF00FFFF01000FFF000FFFFF000000000000
(1693914175.966641) can0 601##468DA030E04000000000000032525252500000000
(1693914175.966641) can0 601##468DA030E04000000000000032525252500000000
(1693914175.966643) can0 101##46805020000000000
(1693914175.966643) can0 101##46805020000000000
(1693914175.983023) can0 010##4B80200400636A5
(1693914175.983023) can0 010##4B80200400636A5
(1693914175.994668) can0 303##45500FF00FFFF01000FFF000FFFFF000000000000
(1693914175.994668) can0 303##45500FF00FFFF01000FFF000FFFFF000000000000
(1693914176.016615) can0 601##469DA030E04000000000000032525252500000000
(1693914176.016615) can0 601##469DA030E04000000000000032525252500000000
(1693914176.016616) can0 101##46905020000000000
(1693914176.016616) can0 101##46905020000000000
(1693914176.033056) can0 010##4B9020040068EC4
(1693914176.033056) can0 010##4B9020040068EC4
(1693914176.044611) can0 303##45600FF00FFFF01000FFF000FFFFF000000000000
(1693914176.044611) can0 303##45600FF00FFFF01000FFF000FFFFF000000000000
(1693914176.066720) can0 601##46ADA030E04000000000000032525252500000000
(1693914176.066720) can0 601##46ADA030E04000000000000032525252500000000
(1693914176.066721) can0 101##46A05020000000000
(1693914176.066721) can0 101##46A05020000000000
(1693914176.066722) can0 201##4AE4601
(1693914176.066722) can0 201##4AE4601
(1693914176.083117) can0 010##4BA020040065646
(1693914176.083117) can0 010##4BA020040065646
(1693914176.094709) can0 303##45700FF00FFFF01000FFF000FFFFF000000000000
(1693914176.094709) can0 303##45700FF00FFFF01000FFF000FFFFF000000000000
(1693914176.116626) can0 601##46BDA030E04000000000000032525252500000000
(1693914176.116626) can0 601##46BDA030E04000000000000032525252500000000
(1693914176.116627) can0 101##46B05020000000000
(1693914176.116627) can0 101##46B05020000000000
(1693914176.132970) can0 010##4BB02004006EE27
(1693914176.132970) can0 010##4BB02004006EE27
(1693914176.144631) can0 303##45800FF00FFFF01000FFF000FFFFF000000000000
(1693914176.144631) can0 303##45800FF00FFFF01000FFF000FFFFF000000000000
(1693914176.166634) can0 601##46CDA030E04000000000000032525252500000000
(1693914176.166634) can0 601##46CDA030E04000000000000032525252500000000
(1693914176.166635) can0 101##46C05020000000000
(1693914176.166635) can0 101##46C05020000000000
(1693914176.183062) can0 010##4BC02004006F763
(1693914176.183062) can0 010##4BC02004006F763
(1693914176.194699) can0 303##45900FF00FFFF01000FFF000FFFFF000000000000
(1693914176.194699) can0 303##45900FF00FFFF01000FFF000FFFFF000000000000
(1693914176.216699) can0 601##46DDA030E04000000000000032525252500000000
(1693914176.216699) can0 601##46DDA030E04000000000000032525252500000000
(1693914176.216700) can0 101##46D05020000000000
(1693914176.216700) can0 101##46D05020000000000
(1693914176.232914) can0 010##4BD020040064F02
(1693914176.232914) can0 010##4BD020040064F02
(1693914176.244860) can0 303##45A00FF00FFFF01000FFF000FFFFF000000000000
(1693914176.244860) can0 303##45A00FF00FFFF01000FFF000FFFFF000000000000
(1693914176.266586) can0 601##46EDA030E04000000000000032525252500000000
(1693914176.266586) can0 601##46EDA030E04000000000000032525252500000000
(1693914176.266587) can0 101##46E05020000000000
(1693914176.266587) can0 101##46E05020000000000
(1693914176.284997) can0 010##4BE020040069780
(1693914176.284997) can0 010##4BE020040069780
(1693914176.294712) can0 303##45B00FF00FFFF01000FFF000FFFFF000000000000
(1693914176.294712) can0 303##45B00FF00FFFF01000FFF000FFFFF000000000000
(1693914176.316662) can0 601##46FDA030E04000000000000032525252500000000
(1693914176.316662) can0 601##46FDA030E04000000000000032525252500000000
(1693914176.316664) can0 101##46F05020000000000
(1693914176.316664) can0 101##46F05020000000000
(1693914176.316664) can0 201##4AF4601
(1693914176.316664) can0 201##4AF4601
(1693914176.332989) can0 010##4BF020040062FE1
(1693914176.332989) can0 010##4BF020040062FE1
(1693914176.344708) can0 303##45C00FF00FFFF01000FFF000FFFFF000000000000
(1693914176.344708) can0 303##45C00FF00FFFF01000FFF000FFFFF000000000000
(1693914176.366581) can0 601##470DA030E04000000000000032525252500000000
(1693914176.366581) can0 601##470DA030E04000000000000032525252500000000
(1693914176.366582) can0 101##47005020000000000
(1693914176.366582) can0 101##47005020000000000
(1693914176.381266) can0 202##52C465FB4455F5E001E0019000D000001
(1693914176.381266) can0 202##52C465FB4455F5E001E0019000D000001
(1693914176.383220) can0 010##4C0020040062169
(1693914176.383220) can0 010##4C0020040062169
(1693914176.394726) can0 303##45D00FF00FFFF01000FFF000FFFFF000000000000
(1693914176.394726) can0 303##45D00FF00FFFF01000FFF000FFFFF000000000000
(1693914176.416610) can0 601##471DA030E04000000000000032525252500000000
(1693914176.416610) can0 601##471DA030E04000000000000032525252500000000
(1693914176.416611) can0 101##47105020000000000
(1693914176.416611) can0 101##47105020000000000
(1693914176.432863) can0 010##4C1020040069908
(1693914176.432863) can0 010##4C1020040069908
(1693914176.444696) can0 303##45E00FF00FFFF01000FFF000FFFFF000000000000
(1693914176.444696) can0 303##45E00FF00FFFF01000FFF000FFFFF000000000000
(1693914176.466617) can0 601##472DA030E04000000000000032525252500000000
(1693914176.466617) can0 601##472DA030E04000000000000032525252500000000
(1693914176.466618) can0 101##47205020000000000
(1693914176.466618) can0 101##47205020000000000
(1693914176.483041) can0 010##4C202004006418A
(1693914176.483041) can0 010##4C202004006418A
(1693914176.494706) can0 303##45F00FF00FFFF01000FFF000FFFFF000000000000
(1693914176.494706) can0 303##45F00FF00FFFF01000FFF000FFFFF000000000000
(1693914176.516613) can0 601##473DA030E04000000000000032525252500000000
(1693914176.516613) can0 601##473DA030E04000000000000032525252500000000
(1693914176.516614) can0 101##47305020000000000
(1693914176.516614) can0 101##47305020000000000
(1693914176.532860) can0 010##4C302004006F9EB
(1693914176.532860) can0 010##4C302004006F9EB
(1693914176.544623) can0 303##46000FF00FFFF01000FFF000FFFFF000000000000
(1693914176.544623) can0 303##46000FF00FFFF01000FFF000FFFFF000000000000
(1693914176.566707) can0 601##474DA030E04000000000000032525252500000000
(1693914176.566707) can0 601##474DA030E04000000000000032525252500000000
(1693914176.566708) can0 101##47405020000000000
(1693914176.566708) can0 101##47405020000000000
(1693914176.566709) can0 201##4B04601
(1693914176.566709) can0 201##4B04601
(1693914176.582965) can0 010##4C402004006E0AF
(1693914176.582965) can0 010##4C402004006E0AF
(1693914176.594719) can0 303##46100FF00FFFF01000FFF000FFFFF000000000000
(1693914176.594719) can0 303##46100FF00FFFF01000FFF000FFFFF000000000000
(1693914176.616674) can0 601##475DA030E04000000000000032525252500000000
(1693914176.616674) can0 601##475DA030E04000000000000032525252500000000
(1693914176.616675) can0 101##47505020000000000
(1693914176.616675) can0 101##47505020000000000
(1693914176.632878) can0 010##4C50200400658CE
(1693914176.632878) can0 010##4C50200400658CE
(1693914176.644700) can0 303##46200FF00FFFF01000FFF000FFFFF000000000000
(1693914176.644700) can0 303##46200FF00FFFF01000FFF000FFFFF000000000000
(1693914176.666679) can0 601##476DA030E04000000000000032525252500000000
(1693914176.666679) can0 601##476DA030E04000000000000032525252500000000
(1693914176.666680) can0 101##47605020000000000
(1693914176.666680) can0 101##47605020000000000
(1693914176.682937) can0 010##4C602004006804C
(1693914176.682937) can0 010##4C602004006804C
(1693914176.694787) can0 303##46300FF00FFFF01000FFF000FFFFF000000000000
(1693914176.694787) can0 303##46300FF00FFFF01000FFF000FFFFF000000000000
(1693914176.716626) can0 601##477DA030E04000000000000032525252500000000
(1693914176.716626) can0 601##477DA030E04000000000000032525252500000000
(1693914176.716627) can0 101##47705020000000000
(1693914176.716627) can0 101##47705020000000000
(1693914176.732836) can0 010##4C702004006382D
(1693914176.732836) can0 010##4C702004006382D
(1693914176.744635) can0 303##46400FF00FFFF01000FFF000FFFFF000000000000
(1693914176.744635) can0 303##46400FF00FFFF01000FFF000FFFFF000000000000
(1693914176.766653) can0 601##478DA030E04000000000000032525252500000000
(1693914176.766653) can0 601##478DA030E04000000000000032525252500000000
(1693914176.766655) can0 101##47805030000000000
(1693914176.766655) can0 101##47805030000000000
(1693914176.782844) can0 010##4C802004006B2C4
(1693914176.782844) can0 010##4C802004006B2C4
(1693914176.794818) can0 303##46500FF00FFFF01000FFF000FFFFF000000000000
(1693914176.794818) can0 303##46500FF00FFFF01000FFF000FFFFF000000000000
(1693914176.816643) can0 601##479DB030E04000000000000032525252500000000
(1693914176.816643) can0 601##479DB030E04000000000000032525252500000000
(1693914176.816644) can0 101##47905030000000000
(1693914176.816644) can0 101##47905030000000000
(1693914176.816645) can0 201##4B16401
(1693914176.816645) can0 201##4B16401
(1693914176.832525) can0 010##4C9020040060AA5
(1693914176.832525) can0 010##4C9020040060AA5
(1693914176.844816) can0 303##46600FF00FFFF01000FFF000FFFFF000000000000
(1693914176.844816) can0 303##46600FF00FFFF01000FFF000FFFFF000000000000
(1693914176.866694) can0 601##47ADB030E04000000000000032525252500000000
(1693914176.866694) can0 601##47ADB030E04000000000000032525252500000000
(1693914176.866696) can0 101##47A05030000000000
(1693914176.866696) can0 101##47A05030000000000
(1693914176.883074) can0 010##4CA02004006D227
(1693914176.883074) can0 010##4CA02004006D227
(1693914176.894654) can0 303##46700FF00FFFF01000FFF000FFFFF000000000000
(1693914176.894654) can0 303##46700FF00FFFF01000FFF000FFFFF000000000000
(1693914176.916707) can0 601##47BDB030E04000000000000032525252500000000
(1693914176.916707) can0 601##47BDB030E04000000000000032525252500000000
(1693914176.916708) can0 101##47B05030000000000
(1693914176.916708) can0 101##47B05030000000000
(1693914176.932837) can0 010##4CB020040066A46
(1693914176.932837) can0 010##4CB020040066A46
(1693914176.944658) can0 303##46800FF00FFFF01000FFF000FFFFF000000000000
(1693914176.944658) can0 303##46800FF00FFFF01000FFF000FFFFF000000000000
(1693914176.966649) can0 601##47CDB030E04000000000000032525252500000000
(1693914176.966649) can0 601##47CDB030E04000000000000032525252500000000
(1693914176.966650) can0 101##47C05030000000000
(1693914176.966650) can0 101##47C05030000000000
(1693914176.982857) can0 010##4CC020040067302
(1693914176.982857) can0 010##4CC020040067302
(1693914176.994775) can0 303##46900FF00FFFF01000FFF000FFFFF000000000000
(1693914176.994775) can0 303##46900FF00FFFF01000FFF000FFFFF000000000000
(1693914177.016728) can0 601##47DDB030E04000000000000032525252500000000
(1693914177.016728) can0 601##47DDB030E04000000000000032525252500000000
(1693914177.016729) can0 101##47D05030000000000
(1693914177.016729) can0 101##47D05030000000000
(1693914177.032821) can0 010##4CD02004006CB63
(1693914177.032821) can0 010##4CD02004006CB63
(1693914177.044654) can0 303##46A00FF00FFFF01000FFF000FFFFF000000000000
(1693914177.044654) can0 303##46A00FF00FFFF01000FFF000FFFFF000000000000
(1693914177.066844) can0 601##47EDC030E04000000000000032525252500000000
(1693914177.066844) can0 601##47EDC030E04000000000000032525252500000000
(1693914177.066845) can0 101##47E05030000000000
(1693914177.066845) can0 101##47E05030000000000
(1693914177.066846) can0 201##4B26401
(1693914177.066846) can0 201##4B26401
(1693914177.082855) can0 010##4CE0200400613E1
(1693914177.082855) can0 010##4CE0200400613E1
(1693914177.094789) can0 303##46B00FF00FFFF01000FFF000FFFFF000000000000
(1693914177.094789) can0 303##46B00FF00FFFF01000FFF000FFFFF000000000000
(1693914177.116719) can0 601##47FDC030E04000000000000032525252500000000
(1693914177.116719) can0 601##47FDC030E04000000000000032525252500000000
(1693914177.116721) can0 101##47F05030000000000
(1693914177.116721) can0 101##47F05030000000000
(1693914177.132807) can0 010##4CF02004006AB80
(1693914177.132807) can0 010##4CF02004006AB80
(1693914177.145129) can0 303##46C00FF00FFFF01000FFF000FFFFF000000000000
(1693914177.145129) can0 303##46C00FF00FFFF01000FFF000FFFFF000000000000
(1693914177.166714) can0 601##480DC030E04000000000000032525252500000000
(1693914177.166714) can0 601##480DC030E04000000000000032525252500000000
(1693914177.166715) can0 101##48005030000000000
(1693914177.166715) can0 101##48005030000000000
(1693914177.182909) can0 010##4D0020040061612
(1693914177.182909) can0 010##4D0020040061612
(1693914177.194838) can0 303##46D00FF00FFFF01000FFF000FFFFF000000000000
(1693914177.194838) can0 303##46D00FF00FFFF01000FFF000FFFFF000000000000
(1693914177.216738) can0 601##481DC030E04000000000000032525252500000000
(1693914177.216738) can0 601##481DC030E04000000000000032525252500000000
(1693914177.216739) can0 101##48105030000000000
(1693914177.216739) can0 101##48105030000000000
(1693914177.232820) can0 010##4D102004006AE73
(1693914177.232820) can0 010##4D102004006AE73
(1693914177.244647) can0 303##46E00FF00FFFF01000FFF000FFFFF000000000000
(1693914177.244647) can0 303##46E00FF00FFFF01000FFF000FFFFF000000000000
(1693914177.266706) can0 601##482DC030E04000000000000032525252500000000
(1693914177.266706) can0 601##482DC030E04000000000000032525252500000000
(1693914177.266707) can0 101##48205030000000000
(1693914177.266707) can0 101##48205030000000000
(1693914177.282795) can0 010##4D20200400676F1
(1693914177.282795) can0 010##4D20200400676F1
(1693914177.294832) can0 303##46F00FF00FFFF01000FFF000FFFFF000000000000
(1693914177.294832) can0 303##46F00FF00FFFF01000FFF000FFFFF000000000000
(1693914177.316713) can0 601##483DC030E04000000000000032525252500000000
(1693914177.316713) can0 601##483DC030E04000000000000032525252500000000
(1693914177.316714) can0 101##48305030000000000
(1693914177.316714) can0 101##48305030000000000
(1693914177.316715) can0 201##4B36401
(1693914177.316715) can0 201##4B36401
(1693914177.332771) can0 010##4D302004006CE90
(1693914177.332771) can0 010##4D302004006CE90
(1693914177.344719) can0 303##47000FF00FFFF01000FFF000FFFFF000000000000
(1693914177.344719) can0 303##47000FF00FFFF01000FFF000FFFFF000000000000
(1693914177.366669) can0 601##484DC030E04000000000000032525252500000000
(1693914177.366669) can0 601##484DC030E04000000000000032525252500000000
(1693914177.366670) can0 101##48405030000000000
(1693914177.366670) can0 101##48405030000000000
(1693914177.381943) can0 202##52D6488B84F6D5600370019000D000000
(1693914177.381943) can0 202##52D6488B84F6D5600370019000D000000
(1693914177.381944) can0 010##4D402004006D7D4
(1693914177.381944) can0 010##4D402004006D7D4
(1693914177.394846) can0 303##47100FF00FFFF01000FFF000FFFFF000000000000
(1693914177.394846) can0 303##47100FF00FFFF01000FFF000FFFFF000000000000
(1693914177.416720) can0 601##485DC030E04000000000000032525252500000000
(1693914177.416720) can0 601##485DC030E04000000000000032525252500000000
(1693914177.416721) can0 101##48505030000000000
(1693914177.416721) can0 101##48505030000000000
(1693914177.432689) can0 010##4D5020040066FB5
(1693914177.432689) can0 010##4D5020040066FB5
(1693914177.444704) can0 303##47200FF00FFFF01000FFF000FFFFF000000000000
(1693914177.444704) can0 303##47200FF00FFFF01000FFF000FFFFF000000000000
(1693914177.466649) can0 601##486DC030E04000000000000032525252500000000
(1693914177.466649) can0 601##486DC030E04000000000000032525252500000000
(1693914177.466650) can0 101##48605030000000000
(1693914177.466650) can0 101##48605030000000000
(1693914177.482713) can0 010##4D602004006B737
(1693914177.482713) can0 010##4D602004006B737
(1693914177.494824) can0 303##47300FF00FFFF01000FFF000FFFFF000000000000
(1693914177.494824) can0 303##47300FF00FFFF01000FFF000FFFFF000000000000
(1693914177.516706) can0 601##487DC030E04000000000000032525252500000000
(1693914177.516706) can0 601##487DC030E04000000000000032525252500000000
(1693914177.516707) can0 101##48705030000000000
(1693914177.516707) can0 101##48705030000000000
(1693914177.532615) can0 010##4D7020040060F56
(1693914177.532615) can0 010##4D7020040060F56
(1693914177.544636) can0 303##47400FF00FFFF01000FFF000FFFFF000000000000
(1693914177.544636) can0 303##47400FF00FFFF01000FFF000FFFFF000000000000
(1693914177.566641) can0 601##488DD030E04000000000000032525252500000000
(1693914177.566641) can0 601##488DD030E04000000000000032525252500000000
(1693914177.566643) can0 101##48805030000000000
(1693914177.566643) can0 101##48805030000000000
(1693914177.566644) can0 201##4B46401
(1693914177.566644) can0 201##4B46401
(1693914177.582702) can0 010##4D80200400685BF
(1693914177.582702) can0 010##4D80200400685BF
(1693914177.594714) can0 303##47500FF00FFFF01000FFF000FFFFF000000000000
(1693914177.594714) can0 303##47500FF00FFFF01000FFF000FFFFF000000000000
(1693914177.616654) can0 601##489DD030E04000000000000032525252500000000
(1693914177.616654) can0 601##489DD030E04000000000000032525252500000000
(1693914177.616655) can0 101##48905030000000000
(1693914177.616655) can0 101##48905030000000000
(1693914177.632690) can0 010##4D9020040063DDE
(1693914177.632690) can0 010##4D9020040063DDE
(1693914177.644621) can0 303##47600FF00FFFF01000FFF000FFFFF000000000000
(1693914177.644621) can0 303##47600FF00FFFF01000FFF000FFFFF000000000000
(1693914177.666708) can0 601##48ADD030E04000000000000032525252500000000
(1693914177.666708) can0 601##48ADD030E04000000000000032525252500000000
(1693914177.666709) can0 101##48A05030000000000
(1693914177.666709) can0 101##48A05030000000000
(1693914177.682609) can0 010##4DA02004006E55C
(1693914177.682609) can0 010##4DA02004006E55C
(1693914177.694664) can0 303##47700FF00FFFF01000FFF000FFFFF000000000000
(1693914177.694664) can0 303##47700FF00FFFF01000FFF000FFFFF000000000000
(1693914177.716742) can0 601##48BDD030E04000000000000032525252500000000
(1693914177.716742) can0 601##48BDD030E04000000000000032525252500000000
(1693914177.716743) can0 101##48B05030000000000
(1693914177.716743) can0 101##48B05030000000000
(1693914177.732627) can0 010##4DB020040065D3D
(1693914177.732627) can0 010##4DB020040065D3D
(1693914177.744734) can0 303##47800FF00FFFF01000FFF000FFFFF000000000000
(1693914177.744734) can0 303##47800FF00FFFF01000FFF000FFFFF000000000000
(1693914177.766778) can0 601##48CDD030E04000000000000032525252500000000
(1693914177.766778) can0 601##48CDD030E04000000000000032525252500000000
(1693914177.766779) can0 101##48C05030000000000
(1693914177.766779) can0 101##48C05030000000000
(1693914177.782699) can0 010##4DC020040064479
(1693914177.782699) can0 010##4DC020040064479
(1693914177.794774) can0 303##47900FF00FFFF01000FFF000FFFFF000000000000
(1693914177.794774) can0 303##47900FF00FFFF01000FFF000FFFFF000000000000
(1693914177.816789) can0 601##48DDD030E04000000000000032525252500000000
(1693914177.816789) can0 601##48DDD030E04000000000000032525252500000000
(1693914177.816790) can0 101##48D05030000000000
(1693914177.816790) can0 101##48D05030000000000
(1693914177.816791) can0 201##4B56401
(1693914177.816791) can0 201##4B56401
(1693914177.832929) can0 010##4DD02004006FC18
(1693914177.832929) can0 010##4DD02004006FC18
(1693914177.844768) can0 303##47A00FF00FFFF01000FFF000FFFFF000000000000
(1693914177.844768) can0 303##47A00FF00FFFF01000FFF000FFFFF000000000000
(1693914177.866800) can0 601##48EDD030E04000000000000032525252500000000
(1693914177.866800) can0 601##48EDD030E04000000000000032525252500000000
(1693914177.866802) can0 101##48E05030000000000
(1693914177.866802) can0 101##48E05030000000000
(1693914177.882867) can0 010##4DE02004006249A
(1693914177.882867) can0 010##4DE02004006249A
(1693914177.894726) can0 303##47B00FF00FFFF01000FFF000FFFFF000000000000
(1693914177.894726) can0 303##47B00FF00FFFF01000FFF000FFFFF000000000000
(1693914177.916790) can0 601##48FDD030E04000000000000032525252500000000
(1693914177.916790) can0 601##48FDD030E04000000000000032525252500000000
(1693914177.916791) can0 101##48F05030000000000
(1693914177.916791) can0 101##48F05030000000000
(1693914177.932704) can0 010##4DF020040069CFB
(1693914177.932704) can0 010##4DF020040069CFB
(1693914177.944630) can0 303##47C00FF00FFFF01000FFF000FFFFF000000000000
(1693914177.944630) can0 303##47C00FF00FFFF01000FFF000FFFFF000000000000
(1693914177.966768) can0 601##490DD030E04000000000000032525252500000000
(1693914177.966768) can0 601##490DD030E04000000000000032525252500000000
(1693914177.966769) can0 101##49005030000000000
(1693914177.966769) can0 101##49005030000000000
(1693914177.982661) can0 010##4E0020040064F9F
(1693914177.982661) can0 010##4E0020040064F9F
(1693914177.994666) can0 303##47D00FF00FFFF01000FFF000FFFFF000000000000
(1693914177.994666) can0 303##47D00FF00FFFF01000FFF000FFFFF000000000000
(1693914178.016714) can0 601##491DD030E04000000000000032525252500000000
(1693914178.016714) can0 601##491DD030E04000000000000032525252500000000
(1693914178.016715) can0 101##49105030000000000
(1693914178.016715) can0 101##49105030000000000
(1693914178.033161) can0 010##4E102004006F7FE
(1693914178.033161) can0 010##4E102004006F7FE
(1693914178.044739) can0 303##47E00FF00FFFF01000FFF000FFFFF000000000000
(1693914178.044739) can0 303##47E00FF00FFFF01000FFF000FFFFF000000000000
(1693914178.066749) can0 601##492DD030E04000000000000032525252500000000
(1693914178.066749) can0 601##492DD030E04000000000000032525252500000000
(1693914178.066751) can0 101##49205030000000000
(1693914178.066751) can0 101##49205030000000000
(1693914178.066752) can0 201##4B66401
(1693914178.066752) can0 201##4B66401
(1693914178.082646) can0 010##4E2020040062F7C
(1693914178.082646) can0 010##4E2020040062F7C
(1693914178.094736) can0 303##47F00FF00FFFF01000FFF000FFFFF000000000000
(1693914178.094736) can0 303##47F00FF00FFFF01000FFF000FFFFF000000000000
(1693914178.116786) can0 601##493DE030E04000000000000032525252500000000
(1693914178.116786) can0 601##493DE030E04000000000000032525252500000000
(1693914178.116787) can0 101##49305030000000000
(1693914178.116787) can0 101##49305030000000000
(1693914178.132542) can0 010##4E302004006971D
(1693914178.132542) can0 010##4E302004006971D
(1693914178.144738) can0 303##48000FF00FFFF01000FFF000FFFFF000000000000
(1693914178.144738) can0 303##48000FF00FFFF01000FFF000FFFFF000000000000
(1693914178.166737) can0 601##494DE030E04000000000000032525252500000000
(1693914178.166737) can0 601##494DE030E04000000000000032525252500000000
(1693914178.166738) can0 101##49405030000000000
(1693914178.166738) can0 101##49405030000000000
(1693914178.182656) can0 010##4E4020040068E59
(1693914178.182656) can0 010##4E4020040068E59
(1693914178.194744) can0 303##48100FF00FFFF01000FFF000FFFFF000000000000
(1693914178.194744) can0 303##48100FF00FFFF01000FFF000FFFFF000000000000
(1693914178.216757) can0 601##495DE030E04000000000000032525252500000000
(1693914178.216757) can0 601##495DE030E04000000000000032525252500000000
(1693914178.216758) can0 101##49505030000000000
(1693914178.216758) can0 101##49505030000000000
(1693914178.232966) can0 010##4E5020040063638
(1693914178.232966) can0 010##4E5020040063638
(1693914178.244725) can0 303##48200FF00FFFF01000FFF000FFFFF000000000000
(1693914178.244725) can0 303##48200FF00FFFF01000FFF000FFFFF000000000000
(1693914178.266772) can0 601##496DE030E04000000000000032525252500000000
(1693914178.266772) can0 601##496DE030E04000000000000032525252500000000
(1693914178.266773) can0 101##49605030000000000
(1693914178.266773) can0 101##49605030000000000
(1693914178.282588) can0 010##4E602004006EEBA
(1693914178.282588) can0 010##4E602004006EEBA
(1693914178.294730) can0 303##48300FF00FFFF01000FFF000FFFFF000000000000
(1693914178.294730) can0 303##48300FF00FFFF01000FFF000FFFFF000000000000
(1693914178.316845) can0 601##497DE030E04000000000000032525252500000000
(1693914178.316845) can0 601##497DE030E04000000000000032525252500000000
(1693914178.316847) can0 101##49705030000000000
(1693914178.316847) can0 101##49705030000000000
(1693914178.316847) can0 201##4B76401
(1693914178.316847) can0 201##4B76401
(1693914178.332965) can0 010##4E70200400656DB
(1693914178.332965) can0 010##4E70200400656DB
(1693914178.344740) can0 303##48400FF00FFFF01000FFF000FFFFF000000000000
(1693914178.344740) can0 303##48400FF00FFFF01000FFF000FFFFF000000000000
(1693914178.366781) can0 601##498DE030E04000000000000032525252500000000
(1693914178.366781) can0 601##498DE030E04000000000000032525252500000000
(1693914178.366782) can0 101##49805030000000000
(1693914178.366782) can0 101##49805030000000000
(1693914178.382541) can0 010##4E802004006DC32
(1693914178.382541) can0 010##4E802004006DC32
(1693914178.382542) can0 202##52E6488B860849600550019000D000000
(1693914178.382542) can0 202##52E6488B860849600550019000D000000
(1693914178.394730) can0 303##48500FF00FFFF01000FFF000FFFFF000000000000
(1693914178.394730) can0 303##48500FF00FFFF01000FFF000FFFFF000000000000
(1693914178.416846) can0 601##499DE030E04000000000000032525252500000000
(1693914178.416846) can0 601##499DE030E04000000000000032525252500000000
(1693914178.416847) can0 101##49905030000000000
(1693914178.416847) can0 101##49905030000000000
(1693914178.432548) can0 010##4E9020040066453
(1693914178.432548) can0 010##4E9020040066453
(1693914178.445154) can0 303##48600FF00FFFF01000FFF000FFFFF000000000000
(1693914178.445154) can0 303##48600FF00FFFF01000FFF000FFFFF000000000000
(1693914178.466780) can0 601##49ADE030E04000000000000032525252500000000
(1693914178.466780) can0 601##49ADE030E04000000000000032525252500000000
(1693914178.466782) can0 101##49A05030000000000
(1693914178.466782) can0 101##49A05030000000000
(1693914178.482507) can0 010##4EA02004006BCD1
(1693914178.482507) can0 010##4EA02004006BCD1
(1693914178.494820) can0 303##48700FF00FFFF01000FFF000FFFFF000000000000
(1693914178.494820) can0 303##48700FF00FFFF01000FFF000FFFFF000000000000
(1693914178.516786) can0 601##49BDE030E04000000000000032525252500000000
(1693914178.516786) can0 601##49BDE030E04000000000000032525252500000000
(1693914178.516787) can0 101##49B05030000000000
(1693914178.516787) can0 101##49B05030000000000
(1693914178.532389) can0 010##4EB0200400604B0
(1693914178.532389) can0 010##4EB0200400604B0
(1693914178.544745) can0 303##48800FF00FFFF01000FFF000FFFFF000000000000
(1693914178.544745) can0 303##48800FF00FFFF01000FFF000FFFFF000000000000
(1693914178.566772) can0 601##49CDE030E04000000000000032525252500000000
(1693914178.566772) can0 601##49CDE030E04000000000000032525252500000000
(1693914178.566774) can0 101##49C05030000000000
(1693914178.566774) can0 101##49C05030000000000
(1693914178.566774) can0 201##4B86401
(1693914178.566774) can0 201##4B86401
(1693914178.582158) can0 010##4EC020040061DF4
(1693914178.582158) can0 010##4EC020040061DF4
(1693914178.594767) can0 303##48900FF00FFFF01000FFF000FFFFF000000000000
(1693914178.594767) can0 303##48900FF00FFFF01000FFF000FFFFF000000000000
(1693914178.616851) can0 601##49DDF030E04000000000000032525252500000000
(1693914178.616851) can0 601##49DDF030E04000000000000032525252500000000
(1693914178.616853) can0 101##49D05030000000000
(1693914178.616853) can0 101##49D05030000000000
(1693914178.632899) can0 010##4ED02004006A595
(1693914178.632899) can0 010##4ED02004006A595
(1693914178.644794) can0 303##48A00FF00FFFF01000FFF000FFFFF000000000000
(1693914178.644794) can0 303##48A00FF00FFFF01000FFF000FFFFF000000000000
(1693914178.666815) can0 601##49EDF030E04000000000000032525252500000000
(1693914178.666815) can0 601##49EDF030E04000000000000032525252500000000
(1693914178.666817) can0 101##49E05030000000000
(1693914178.666817) can0 101##49E05030000000000
(1693914178.682397) can0 010##4EE020040067D17
(1693914178.682397) can0 010##4EE020040067D17
(1693914178.694705) can0 303##48B00FF00FFFF01000FFF000FFFFF000000000000
(1693914178.694705) can0 303##48B00FF00FFFF01000FFF000FFFFF000000000000
(1693914178.716892) can0 601##49FDF030E04000000000000032525252500000000
(1693914178.716892) can0 601##49FDF030E04000000000000032525252500000000
(1693914178.716893) can0 101##49F05030000000000
(1693914178.716893) can0 101##49F05030000000000
(1693914178.732866) can0 010##4EF02004006C576
(1693914178.732866) can0 010##4EF02004006C576
(1693914178.744747) can0 303##48C00FF00FFFF01000FFF000FFFFF000000000000
(1693914178.744747) can0 303##48C00FF00FFFF01000FFF000FFFFF000000000000
(1693914178.766821) can0 601##4A0DF030E04000000000000032525252500000000
(1693914178.766821) can0 601##4A0DF030E04000000000000032525252500000000
(1693914178.766822) can0 101##4A005050000000000
(1693914178.766822) can0 101##4A005050000000000
(1693914178.782532) can0 010##4F00200400678E4
(1693914178.782532) can0 010##4F00200400678E4
(1693914178.794728) can0 303##48D00FF00FFFF01000FFF000FFFFF000000000000
(1693914178.794728) can0 303##48D00FF00FFFF01000FFF000FFFFF000000000000
(1693914178.816814) can0 601##4A1DF030E04000000000000032525252500000000
(1693914178.816814) can0 601##4A1DF030E04000000000000032525252500000000
(1693914178.816815) can0 101##4A105050000000000
(1693914178.816815) can0 101##4A105050000000000
(1693914178.816816) can0 201##4B96401
(1693914178.816816) can0 201##4B96401
(1693914178.832358) can0 010##4F102004006C085
(1693914178.832358) can0 010##4F102004006C085
(1693914178.844778) can0 303##48E00FF00FFFF01000FFF000FFFFF000000000000
(1693914178.844778) can0 303##48E00FF00FFFF01000FFF000FFFFF000000000000
(1693914178.866917) can0 601##4A2DE030E04000000000000032525252500000000
(1693914178.866917) can0 601##4A2DE030E04000000000000032525252500000000
(1693914178.866918) can0 101##4A205050000000000
(1693914178.866918) can0 101##4A205050000000000
(1693914178.882473) can0 010##4F2020040061807
(1693914178.882473) can0 010##4F2020040061807
(1693914178.894773) can0 303##48F00FF00FFFF01000FFF000FFFFF000000000000
(1693914178.894773) can0 303##48F00FF00FFFF01000FFF000FFFFF000000000000
(1693914178.916891) can0 601##4A3DF030E04000000000000032525252500000000
(1693914178.916891) can0 601##4A3DF030E04000000000000032525252500000000
(1693914178.916892) can0 101##4A305050000000000
(1693914178.916892) can0 101##4A305050000000000
(1693914178.932334) can0 010##4F302004006A066
(1693914178.932334) can0 010##4F302004006A066
(1693914178.945180) can0 303##49000FF00FFFF01000FFF000FFFFF000000000000
(1693914178.945180) can0 303##49000FF00FFFF01000FFF000FFFFF000000000000
(1693914178.966830) can0 601##4A4DF030E04000000000000032525252500000000
(1693914178.966830) can0 601##4A4DF030E04000000000000032525252500000000
(1693914178.966832) can0 101##4A405050000000000
(1693914178.966832) can0 101##4A405050000000000
(1693914178.983256) can0 010##4F402004006B922
(1693914178.983256) can0 010##4F402004006B922
(1693914178.994785) can0 303##49100FF00FFFF01000FFF000FFFFF000000000000
(1693914178.994785) can0 303##49100FF00FFFF01000FFF000FFFFF000000000000
(1693914179.016930) can0 601##4A5DF030E04000000000000032525252500000000
(1693914179.016930) can0 601##4A5DF030E04000000000000032525252500000000
(1693914179.016931) can0 101##4A505050000000000
(1693914179.016931) can0 101##4A505050000000000
(1693914179.032133) can0 010##4F5020040060143
(1693914179.032133) can0 010##4F5020040060143
(1693914179.044822) can0 303##49200FF00FFFF01000FFF000FFFFF000000000000
(1693914179.044822) can0 303##49200FF00FFFF01000FFF000FFFFF000000000000
(1693914179.066924) can0 601##4A6E0030E04000000000000032525252500000000
(1693914179.066924) can0 601##4A6E0030E04000000000000032525252500000000
(1693914179.066925) can0 101##4A605050000000000
(1693914179.066925) can0 101##4A605050000000000
(1693914179.066925) can0 201##4BA6401
(1693914179.066925) can0 201##4BA6401
(1693914179.082351) can0 010##4F602004006D9C1
(1693914179.082351) can0 010##4F602004006D9C1
(1693914179.094778) can0 303##49300FF00FFFF01000FFF000FFFFF000000000000
(1693914179.094778) can0 303##49300FF00FFFF01000FFF000FFFFF000000000000
(1693914179.116858) can0 601##4A7E0030E04000000000000032525252500000000
(1693914179.116858) can0 601##4A7E0030E04000000000000032525252500000000
(1693914179.116859) can0 101##4A705050000000000
(1693914179.116859) can0 101##4A705050000000000
(1693914179.132802) can0 010##4F70200400661A0
(1693914179.132802) can0 010##4F70200400661A0
(1693914179.144761) can0 303##49400FF00FFFF01000FFF000FFFFF000000000000
(1693914179.144761) can0 303##49400FF00FFFF01000FFF000FFFFF000000000000
(1693914179.166864) can0 601##4A8E0030E04000000000000032525252500000000
(1693914179.166864) can0 601##4A8E0030E04000000000000032525252500000000
(1693914179.166866) can0 101##4A805050000000000
(1693914179.166866) can0 101##4A805050000000000
(1693914179.182417) can0 010##4F802004006EB49
(1693914179.182417) can0 010##4F802004006EB49
(1693914179.194842) can0 303##49500FF00FFFF01000FFF000FFFFF000000000000
(1693914179.194842) can0 303##49500FF00FFFF01000FFF000FFFFF000000000000
(1693914179.217007) can0 601##4A9E0030E04000000000000032525252500000000
(1693914179.217007) can0 601##4A9E0030E04000000000000032525252500000000
(1693914179.217008) can0 101##4A905050000000000
(1693914179.217008) can0 101##4A905050000000000
(1693914179.232828) can0 010##4F9020040065328
(1693914179.232828) can0 010##4F9020040065328
(1693914179.244776) can0 303##49600FF00FFFF01000FFF000FFFFF000000000000
(1693914179.244776) can0 303##49600FF00FFFF01000FFF000FFFFF000000000000
(1693914179.267192) can0 601##4AAE0030E04000000000000032525252500000000
(1693914179.267192) can0 601##4AAE0030E04000000000000032525252500000000
(1693914179.267194) can0 101##4AA05050000000000
(1693914179.267194) can0 101##4AA05050000000000
(1693914179.282349) can0 010##4FA020040068BAA
(1693914179.282349) can0 010##4FA020040068BAA
(1693914179.294888) can0 303##49700FF00FFFF01000FFF000FFFFF000000000000
(1693914179.294888) can0 303##49700FF00FFFF01000FFF000FFFFF000000000000
(1693914179.316944) can0 601##4ABE0030E04000000000000032525252500000000
(1693914179.316944) can0 601##4ABE0030E04000000000000032525252500000000
(1693914179.316945) can0 101##4AB05050000000000
(1693914179.316945) can0 101##4AB05050000000000
(1693914179.316946) can0 201##4BB6401
(1693914179.316946) can0 201##4BB6401
(1693914179.332476) can0 010##4FB0200400633CB
(1693914179.332476) can0 010##4FB0200400633CB
(1693914179.345179) can0 303##49800FF00FFFF01000FFF000FFFFF000000000000
(1693914179.345179) can0 303##49800FF00FFFF01000FFF000FFFFF000000000000
(1693914179.367004) can0 601##4ACE0030E04000000000000032525252500000000
(1693914179.367004) can0 601##4ACE0030E04000000000000032525252500000000
(1693914179.367006) can0 101##4AC05050000000000
(1693914179.367006) can0 101##4AC05050000000000
(1693914179.382408) can0 010##4FC020040062A8F
(1693914179.382408) can0 010##4FC020040062A8F
(1693914179.383851) can0 202##52F6488B8638886004B0019000D000001
(1693914179.383851) can0 202##52F6488B8638886004B0019000D000001
(1693914179.394775) can0 303##49900FF00FFFF01000FFF000FFFFF000000000000
(1693914179.394775) can0 303##49900FF00FFFF01000FFF000FFFFF000000000000
(1693914179.416911) can0 601##4ADE0030E04000000000000032525252500000000
(1693914179.416911) can0 601##4ADE0030E04000000000000032525252500000000
(1693914179.416913) can0 101##4AD05050000000000
(1693914179.416913) can0 101##4AD05050000000000
(1693914179.432327) can0 010##4FD0200400692EE
(1693914179.432327) can0 010##4FD0200400692EE
(1693914179.444783) can0 303##49A00FF00FFFF01000FFF000FFFFF000000000000
(1693914179.444783) can0 303##49A00FF00FFFF01000FFF000FFFFF000000000000
(1693914179.467072) can0 601##4AEE0030E04000000000000032525252500000000
(1693914179.467072) can0 601##4AEE0030E04000000000000032525252500000000
(1693914179.467073) can0 101##4AE05050000000000
(1693914179.467073) can0 101##4AE05050000000000
(1693914179.482427) can0 010##4FE020040064A6C
(1693914179.482427) can0 010##4FE020040064A6C
(1693914179.494791) can0 303##49B00FF00FFFF01000FFF000FFFFF000000000000
(1693914179.494791) can0 303##49B00FF00FFFF01000FFF000FFFFF000000000000
(1693914179.517122) can0 601##4AFE0030E04000000000000032525252500000000
(1693914179.517122) can0 601##4AFE0030E04000000000000032525252500000000
(1693914179.517123) can0 101##4AF05050000000000
(1693914179.517123) can0 101##4AF05050000000000
(1693914179.532240) can0 010##4FF02004006F20D
(1693914179.532240) can0 010##4FF02004006F20D
(1693914179.544712) can0 303##49C00FF00FFFF01000FFF000FFFFF000000000000
(1693914179.544712) can0 303##49C00FF00FFFF01000FFF000FFFFF000000000000
(1693914179.566963) can0 601##4B0E0030E04000000000000032525252500000000
(1693914179.566963) can0 601##4B0E0030E04000000000000032525252500000000
(1693914179.566964) can0 101##4B005050000000000
(1693914179.566964) can0 101##4B005050000000000
(1693914179.566965) can0 201##4BC6401
(1693914179.566965) can0 201##4BC6401
(1693914179.582198) can0 010##40002004006577C
(1693914179.582198) can0 010##40002004006577C
(1693914179.594718) can0 303##49D00FF00FFFF01000FFF000FFFFF000000000000
(1693914179.594718) can0 303##49D00FF00FFFF01000FFF000FFFFF000000000000
(1693914179.617174) can0 601##4B1E0030E04000000000000032525252500000000
(1693914179.617174) can0 601##4B1E0030E04000000000000032525252500000000
(1693914179.617175) can0 101##4B105050000000000
(1693914179.617175) can0 101##4B105050000000000
(1693914179.632155) can0 010##40102004006EF1D
(1693914179.632155) can0 010##40102004006EF1D
(1693914179.645167) can0 303##49E00FF00FFFF01000FFF000FFFFF000000000000
(1693914179.645167) can0 303##49E00FF00FFFF01000FFF000FFFFF000000000000
(1693914179.666971) can0 601##4B2E0030E04000000000000032525252500000000
(1693914179.666971) can0 601##4B2E0030E04000000000000032525252500000000
(1693914179.666972) can0 101##4B205050000000000
(1693914179.666972) can0 101##4B205050000000000
(1693914179.682198) can0 010##40202004006379F
(1693914179.682198) can0 010##40202004006379F
(1693914179.694805) can0 303##49F00FF00FFFF01000FFF000FFFFF000000000000
(1693914179.694805) can0 303##49F00FF00FFFF01000FFF000FFFFF000000000000
(1693914179.716974) can0 601##4B3E0030E04000000000000032525252500000000
(1693914179.716974) can0 601##4B3E0030E04000000000000032525252500000000
(1693914179.716975) can0 101##4B305050000000000
(1693914179.716975) can0 101##4B305050000000000
(1693914179.732168) can0 010##403020040068FFE
(1693914179.732168) can0 010##403020040068FFE
(1693914179.744831) can0 303##4A000FF00FFFF01000FFF000FFFFF000000000000
(1693914179.744831) can0 303##4A000FF00FFFF01000FFF000FFFFF000000000000
(1693914179.766892) can0 601##4B4E0030E04000000000000032525252500000000
(1693914179.766892) can0 601##4B4E0030E04000000000000032525252500000000
(1693914179.766893) can0 101##4B405050000000000
(1693914179.766893) can0 101##4B405050000000000
(1693914179.782274) can0 010##4040200400696BA
(1693914179.782274) can0 010##4040200400696BA
(1693914179.794802) can0 303##4A100FF00FFFF01000FFF000FFFFF000000000000
(1693914179.794802) can0 303##4A100FF00FFFF01000FFF000FFFFF000000000000
(1693914179.816894) can0 601##4B5E0030E04000000000000032525252500000000
(1693914179.816894) can0 601##4B5E0030E04000000000000032525252500000000
(1693914179.816895) can0 101##4B505050000000000
(1693914179.816895) can0 101##4B505050000000000
(1693914179.816895) can0 201##4BD6401
(1693914179.816895) can0 201##4BD6401
(1693914179.832115) can0 010##405020040062EDB
(1693914179.832115) can0 010##405020040062EDB
(1693914179.844785) can0 303##4A200FF00FFFF01000FFF000FFFFF000000000000
(1693914179.844785) can0 303##4A200FF00FFFF01000FFF000FFFFF000000000000
(1693914179.866905) can0 601##4B6E0030E04000000000000032525252500000000
(1693914179.866905) can0 601##4B6E0030E04000000000000032525252500000000
(1693914179.866907) can0 101##4B605050000000000
(1693914179.866907) can0 101##4B605050000000000
(1693914179.882221) can0 010##40602004006F659
(1693914179.882221) can0 010##40602004006F659
(1693914179.894803) can0 303##4A300FF00FFFF01000FFF000FFFFF000000000000
(1693914179.894803) can0 303##4A300FF00FFFF01000FFF000FFFFF000000000000
(1693914179.917164) can0 601##4B7E0030E04000000000000032525252500000000
(1693914179.917164) can0 601##4B7E0030E04000000000000032525252500000000
(1693914179.917165) can0 101##4B705050000000000
(1693914179.917165) can0 101##4B705050000000000
(1693914179.933977) can0 010##407020040064E38
(1693914179.933977) can0 010##407020040064E38
(1693914179.944787) can0 303##4A400FF00FFFF01000FFF000FFFFF000000000000
(1693914179.944787) can0 303##4A400FF00FFFF01000FFF000FFFFF000000000000
(1693914179.966990) can0 601##4B8E0030E04000000000000032525252500000000
(1693914179.966990) can0 601##4B8E0030E04000000000000032525252500000000
(1693914179.966991) can0 101##4B805050000000000
(1693914179.966991) can0 101##4B805050000000000
(1693914179.982197) can0 010##40802004006C4D1
(1693914179.982197) can0 010##40802004006C4D1
(1693914179.995193) can0 303##4A500FF00FFFF01000FFF000FFFFF000000000000
(1693914179.995193) can0 303##4A500FF00FFFF01000FFF000FFFFF000000000000
(1693914180.016948) can0 601##4B9E0030E04000000000000032525252500000000
(1693914180.016948) can0 601##4B9E0030E04000000000000032525252500000000
(1693914180.016949) can0 101##4B905050000000000
(1693914180.016949) can0 101##4B905050000000000
(1693914180.032129) can0 010##409020040067CB0
(1693914180.032129) can0 010##409020040067CB0
(1693914180.044833) can0 303##4A600FF00FFFF01000FFF000FFFFF000000000000
(1693914180.044833) can0 303##4A600FF00FFFF01000FFF000FFFFF000000000000
(1693914180.067003) can0 601##4BAE1030E04000000000000032525252500000000
(1693914180.067003) can0 601##4BAE1030E04000000000000032525252500000000
(1693914180.067004) can0 101##4BA05050000000000
(1693914180.067004) can0 101##4BA05050000000000
(1693914180.067004) can0 201##4BE6401
(1693914180.067004) can0 201##4BE6401
(1693914180.082107) can0 010##40A02004006A432
(1693914180.082107) can0 010##40A02004006A432
(1693914180.094756) can0 303##4A700FF00FFFF01000FFF000FFFFF000000000000
(1693914180.094756) can0 303##4A700FF00FFFF01000FFF000FFFFF000000000000
(1693914180.116958) can0 601##4BBE2030E04000000000000032525252500000000
(1693914180.116958) can0 601##4BBE2030E04000000000000032525252500000000
(1693914180.116959) can0 101##4BB05050000000000
(1693914180.116959) can0 101##4BB05050000000000
(1693914180.132189) can0 010##40B020040061C53
(1693914180.132189) can0 010##40B020040061C53
(1693914180.144888) can0 303##4A800FF00FFFF01000FFF000FFFFF000000000000
(1693914180.144888) can0 303##4A800FF00FFFF01000FFF000FFFFF000000000000
(1693914180.166918) can0 601##4BCE3030E04000000000000032525252500000000
(1693914180.166918) can0 601##4BCE3030E04000000000000032525252500000000
(1693914180.166919) can0 101##4BC05050000000000
(1693914180.166919) can0 101##4BC05050000000000
(1693914180.182141) can0 010##40C020040060517
(1693914180.182141) can0 010##40C020040060517
(1693914180.195216) can0 303##4A900FF00FFFF01000FFF000FFFFF000000000000
(1693914180.195216) can0 303##4A900FF00FFFF01000FFF000FFFFF000000000000
(1693914180.217018) can0 601##4BDE3030E04000000000000032525252500000000
(1693914180.217018) can0 601##4BDE3030E04000000000000032525252500000000
(1693914180.217019) can0 101##4BD05050000000000
(1693914180.217019) can0 101##4BD05050000000000
(1693914180.232132) can0 010##40D02004006BD76
(1693914180.232132) can0 010##40D02004006BD76
(1693914180.245067) can0 303##4AA00FF00FFFF01000FFF000FFFFF000000000000
(1693914180.245067) can0 303##4AA00FF00FFFF01000FFF000FFFFF000000000000
(1693914180.266987) can0 601##4BEE4030E04000000000000032525252500000000
(1693914180.266987) can0 601##4BEE4030E04000000000000032525252500000000
(1693914180.266988) can0 101##4BE05050000000000
(1693914180.266988) can0 101##4BE05050000000000
(1693914180.281780) can0 010##40E0200400665F4
(1693914180.281780) can0 010##40E0200400665F4
(1693914180.294831) can0 303##4AB00FF00FFFF01000FFF000FFFFF000000000000
(1693914180.294831) can0 303##4AB00FF00FFFF01000FFF000FFFFF000000000000
(1693914180.317203) can0 601##4BFE3030E04000000000000032525252500000000
(1693914180.317203) can0 601##4BFE3030E04000000000000032525252500000000
(1693914180.317204) can0 101##4BF05050000000000
(1693914180.317204) can0 101##4BF05050000000000
(1693914180.317205) can0 201##4BF6401
(1693914180.317205) can0 201##4BF6401
(1693914180.332277) can0 010##40F02004006DD95
(1693914180.332277) can0 010##40F02004006DD95
(1693914180.344692) can0 303##4AC00FF00FFFF01000FFF000FFFFF000000000000
(1693914180.344692) can0 303##4AC00FF00FFFF01000FFF000FFFFF000000000000
(1693914180.366930) can0 601##4C0E4030E04000000000000032525252500000000
(1693914180.366930) can0 601##4C0E4030E04000000000000032525252500000000
(1693914180.366931) can0 101##4C005050000000000
(1693914180.366931) can0 101##4C005050000000000
(1693914180.382048) can0 010##410020040066007
(1693914180.382048) can0 010##410020040066007
(1693914180.384101) can0 202##5306488B86489E2004B0019000D000001
(1693914180.384101) can0 202##5306488B86489E2004B0019000D000001
(1693914180.394758) can0 303##4AD00FF00FFFF01000FFF000FFFFF000000000000
(1693914180.394758) can0 303##4AD00FF00FFFF01000FFF000FFFFF000000000000
(1693914180.417001) can0 601##4C1E3030E04000000000000032525252500000000
(1693914180.417001) can0 601##4C1E3030E04000000000000032525252500000000
(1693914180.417003) can0 101##4C105050000000000
(1693914180.417003) can0 101##4C105050000000000
(1693914180.432184) can0 010##41102004006D866
(1693914180.432184) can0 010##41102004006D866
(1693914180.445287) can0 303##4AE00FF00FFFF01000FFF000FFFFF000000000000
(1693914180.445287) can0 303##4AE00FF00FFFF01000FFF000FFFFF000000000000
(1693914180.467154) can0 601##4C2E3030E04000000000000032525252500000000
(1693914180.467154) can0 601##4C2E3030E04000000000000032525252500000000
(1693914180.467155) can0 101##4C205050000000000
(1693914180.467155) can0 101##4C205050000000000
(1693914180.482031) can0 010##4120200400600E4
(1693914180.482031) can0 010##4120200400600E4
(1693914180.494880) can0 303##4AF00FF00FFFF01000FFF000FFFFF000000000000
(1693914180.494880) can0 303##4AF00FF00FFFF01000FFF000FFFFF000000000000
(1693914180.517223) can0 601##4C3E3030E04000000000000032525252500000000
(1693914180.517223) can0 601##4C3E3030E04000000000000032525252500000000
(1693914180.517224) can0 101##4C305050000000000
(1693914180.517224) can0 101##4C305050000000000
(1693914180.532514) can0 010##41302004006B885
(1693914180.532514) can0 010##41302004006B885
(1693914180.544809) can0 303##4B000FF00FFFF01000FFF000FFFFF000000000000
(1693914180.544809) can0 303##4B000FF00FFFF01000FFF000FFFFF000000000000
(1693914180.567163) can0 601##4C4E3030E04000000000000032525252500000000
(1693914180.567163) can0 601##4C4E3030E04000000000000032525252500000000
(1693914180.567164) can0 101##4C405050000000000
(1693914180.567164) can0 101##4C405050000000000
(1693914180.567165) can0 201##4C06401
(1693914180.567165) can0 201##4C06401
(1693914180.581998) can0 010##41402004006A1C1
(1693914180.581998) can0 010##41402004006A1C1
(1693914180.594717) can0 303##4B100FF00FFFF01000FFF000FFFFF000000000000
(1693914180.594717) can0 303##4B100FF00FFFF01000FFF000FFFFF000000000000
(1693914180.617206) can0 601##4C5E3030E04000000000000032525252500000000
(1693914180.617206) can0 601##4C5E3030E04000000000000032525252500000000
(1693914180.617207) can0 101##4C505050000000000
(1693914180.617207) can0 101##4C505050000000000
(1693914180.632475) can0 010##4150200400619A0
(1693914180.632475) can0 010##4150200400619A0
(1693914180.644810) can0 303##4B200FF00FFFF01000FFF000FFFFF000000000000
(1693914180.644810) can0 303##4B200FF00FFFF01000FFF000FFFFF000000000000
(1693914180.667012) can0 601##4C6E3030E04000000000000032525252500000000
(1693914180.667012) can0 601##4C6E3030E04000000000000032525252500000000
(1693914180.667014) can0 101##4C605050000000000
(1693914180.667014) can0 101##4C605050000000000
(1693914180.681985) can0 010##41602004006C122
(1693914180.681985) can0 010##41602004006C122
(1693914180.694800) can0 303##4B300FF00FFFF01000FFF000FFFFF000000000000
(1693914180.694800) can0 303##4B300FF00FFFF01000FFF000FFFFF000000000000
(1693914180.717070) can0 601##4C7E3030E04000000000000032525252500000000
(1693914180.717070) can0 601##4C7E3030E04000000000000032525252500000000
(1693914180.717071) can0 101##4C705050000000000
(1693914180.717071) can0 101##4C705050000000000
(1693914180.731981) can0 010##417020040067943
(1693914180.731981) can0 010##417020040067943
(1693914180.744811) can0 303##4B400FF00FFFF01000FFF000FFFFF000000000000
(1693914180.744811) can0 303##4B400FF00FFFF01000FFF000FFFFF000000000000
(1693914180.767119) can0 601##4C8E3030E04000000000000032525252500000000
(1693914180.767119) can0 601##4C8E3030E04000000000000032525252500000000
(1693914180.767120) can0 101##4C805050000000000
(1693914180.767120) can0 101##4C805050000000000
(1693914180.782065) can0 010##41802004006F3AA
(1693914180.782065) can0 010##41802004006F3AA
(1693914180.794789) can0 303##4B500FF00FFFF01000FFF000FFFFF000000000000
(1693914180.794789) can0 303##4B500FF00FFFF01000FFF000FFFFF000000000000
(1693914180.817050) can0 601##4C9E3030E04000000000000032525252500000000
(1693914180.817050) can0 601##4C9E3030E04000000000000032525252500000000
(1693914180.817051) can0 101##4C905060000000000
(1693914180.817051) can0 101##4C905060000000000
(1693914180.817051) can0 201##4C16401
(1693914180.817051) can0 201##4C16401
(1693914180.832000) can0 010##419020040064BCB
(1693914180.832000) can0 010##419020040064BCB
(1693914180.845196) can0 303##4B600FF00FFFF01000FFF000FFFFF000000000000
(1693914180.845196) can0 303##4B600FF00FFFF01000FFF000FFFFF000000000000
(1693914180.867215) can0 601##4CAE4030E04000000000000032525252500000000
(1693914180.867215) can0 601##4CAE4030E04000000000000032525252500000000
(1693914180.867216) can0 101##4CA05060000000000
(1693914180.867216) can0 101##4CA05060000000000
(1693914180.881980) can0 010##41A020040069349
(1693914180.881980) can0 010##41A020040069349
(1693914180.894816) can0 303##4B700FF00FFFF01000FFF000FFFFF000000000000
(1693914180.894816) can0 303##4B700FF00FFFF01000FFF000FFFFF000000000000
(1693914180.917097) can0 601##4CBE4030E04000000000000032525252500000000
(1693914180.917097) can0 601##4CBE4030E04000000000000032525252500000000
(1693914180.917099) can0 101##4CB05060000000000
(1693914180.917099) can0 101##4CB05060000000000
(1693914180.931969) can0 010##41B020040062B28
(1693914180.931969) can0 010##41B020040062B28
(1693914180.945198) can0 303##4B800FF00FFFF01000FFF000FFFFF000000000000
(1693914180.945198) can0 303##4B800FF00FFFF01000FFF000FFFFF000000000000
(1693914180.967168) can0 601##4CCE5030E04000000000000032525252500000000
(1693914180.967168) can0 601##4CCE5030E04000000000000032525252500000000
(1693914180.967170) can0 101##4CC05060000000000
(1693914180.967170) can0 101##4CC05060000000000
(1693914180.982298) can0 010##41C02004006326C
(1693914180.982298) can0 010##41C02004006326C
(1693914180.994819) can0 303##4B900FF00FFFF01000FFF000FFFFF000000000000
(1693914180.994819) can0 303##4B900FF00FFFF01000FFF000FFFFF000000000000
(1693914181.017105) can0 601##4CDE5030E04000000000000032525252500000000
(1693914181.017105) can0 601##4CDE5030E04000000000000032525252500000000
(1693914181.017106) can0 101##4CD05060000000000
(1693914181.017106) can0 101##4CD05060000000000
(1693914181.031975) can0 010##41D020040068A0D
(1693914181.031975) can0 010##41D020040068A0D
(1693914181.045024) can0 303##4BA00FF00FFFF01000FFF000FFFFF000000000000
(1693914181.045024) can0 303##4BA00FF00FFFF01000FFF000FFFFF000000000000
(1693914181.067018) can0 601##4CEE5030E04000000000000032525252500000000
(1693914181.067018) can0 601##4CEE5030E04000000000000032525252500000000
(1693914181.067020) can0 101##4CE05060000000000
(1693914181.067020) can0 101##4CE05060000000000
(1693914181.067020) can0 201##4C26401
(1693914181.067020) can0 201##4C26401
(1693914181.082007) can0 010##41E02004006528F
(1693914181.082007) can0 010##41E02004006528F
(1693914181.094771) can0 303##4BB00FF00FFFF01000FFF000FFFFF000000000000
(1693914181.094771) can0 303##4BB00FF00FFFF01000FFF000FFFFF000000000000
(1693914181.117168) can0 601##4CFE4030E04000000000000032525252500000000
(1693914181.117168) can0 601##4CFE4030E04000000000000032525252500000000
(1693914181.117170) can0 101##4CF05060000000000
(1693914181.117170) can0 101##4CF05060000000000
(1693914181.131849) can0 010##41F02004006EAEE
(1693914181.131849) can0 010##41F02004006EAEE
(1693914181.145150) can0 303##4BC00FF00FFFF01000FFF000FFFFF000000000000
(1693914181.145150) can0 303##4BC00FF00FFFF01000FFF000FFFFF000000000000
(1693914181.167184) can0 601##4D0E4030E04000000000000032525252500000000
(1693914181.167184) can0 601##4D0E4030E04000000000000032525252500000000
(1693914181.167185) can0 101##4D005060000000000
(1693914181.167185) can0 101##4D005060000000000
(1693914181.181853) can0 010##42002004006398A
(1693914181.181853) can0 010##42002004006398A
(1693914181.194810) can0 303##4BD00FF00FFFF01000FFF000FFFFF000000000000
(1693914181.194810) can0 303##4BD00FF00FFFF01000FFF000FFFFF000000000000
(1693914181.217075) can0 601##4D1E4030E04000000000000032525252500000000
(1693914181.217075) can0 601##4D1E4030E04000000000000032525252500000000
(1693914181.217076) can0 101##4D105060000000000
(1693914181.217076) can0 101##4D105060000000000
(1693914181.231890) can0 010##4210200400681EB
(1693914181.231890) can0 010##4210200400681EB
(1693914181.244856) can0 303##4BE00FF00FFFF01000FFF000FFFFF000000000000
(1693914181.244856) can0 303##4BE00FF00FFFF01000FFF000FFFFF000000000000
(1693914181.267116) can0 601##4D2E4030E04000000000000032525252500000000
(1693914181.267116) can0 601##4D2E4030E04000000000000032525252500000000
(1693914181.267117) can0 101##4D205060000000000
(1693914181.267117) can0 101##4D205060000000000
(1693914181.282109) can0 010##422020040065969
(1693914181.282109) can0 010##422020040065969
(1693914181.294854) can0 303##4BF00FF00FFFF01000FFF000FFFFF000000000000
(1693914181.294854) can0 303##4BF00FF00FFFF01000FFF000FFFFF000000000000
(1693914181.317076) can0 601##4D3E3030E04000000000000032525252500000000
(1693914181.317076) can0 601##4D3E3030E04000000000000032525252500000000
(1693914181.317077) can0 101##4D305060000000000
(1693914181.317077) can0 101##4D305060000000000
(1693914181.317077) can0 201##4C36401
(1693914181.317077) can0 201##4C36401
(1693914181.331849) can0 010##42302004006E108
(1693914181.331849) can0 010##42302004006E108
(1693914181.345258) can0 303##4C000FF00FFFF01000FFF000FFFFF000000000000
(1693914181.345258) can0 303##4C000FF00FFFF01000FFF000FFFFF000000000000
(1693914181.367184) can0 601##4D4E3030E04000000000000032525252500000000
(1693914181.367184) can0 601##4D4E3030E04000000000000032525252500000000
(1693914181.367186) can0 101##4D405060000000000
(1693914181.367186) can0 101##4D405060000000000
(1693914181.381967) can0 010##42402004006F84C
(1693914181.381967) can0 010##42402004006F84C
(1693914181.384912) can0 202##5316488B8638892004D0019000D000001
(1693914181.384912) can0 202##5316488B8638892004D0019000D000001
(1693914181.394788) can0 303##4C100FF00FFFF01000FFF000FFFFF000000000000
(1693914181.394788) can0 303##4C100FF00FFFF01000FFF000FFFFF000000000000
(1693914181.417186) can0 601##4D5E3030E04000000000000032525252500000000
(1693914181.417186) can0 601##4D5E3030E04000000000000032525252500000000
(1693914181.417188) can0 101##4D505060000000000
(1693914181.417188) can0 101##4D505060000000000
(1693914181.431879) can0 010##42502004006402D
(1693914181.431879) can0 010##42502004006402D
(1693914181.444780) can0 303##4C200FF00FFFF01000FFF000FFFFF000000000000
(1693914181.444780) can0 303##4C200FF00FFFF01000FFF000FFFFF000000000000
(1693914181.467135) can0 601##4D6E3030E04000000000000032525252500000000
(1693914181.467135) can0 601##4D6E3030E04000000000000032525252500000000
(1693914181.467137) can0 101##4D605060000000000
(1693914181.467137) can0 101##4D605060000000000
(1693914181.482168) can0 010##4260200400698AF
(1693914181.482168) can0 010##4260200400698AF
(1693914181.494792) can0 303##4C300FF00FFFF01000FFF000FFFFF000000000000
(1693914181.494792) can0 303##4C300FF00FFFF01000FFF000FFFFF000000000000
(1693914181.517198) can0 601##4D7E3030E04000000000000032525252500000000
(1693914181.517198) can0 601##4D7E3030E04000000000000032525252500000000
(1693914181.517199) can0 101##4D705060000000000
(1693914181.517199) can0 101##4D705060000000000
(1693914181.531850) can0 010##4270200400620CE
(1693914181.531850) can0 010##4270200400620CE
(1693914181.545222) can0 303##4C400FF00FFFF01000FFF000FFFFF000000000000
(1693914181.545222) can0 303##4C400FF00FFFF01000FFF000FFFFF000000000000
(1693914181.567222) can0 601##4D8E3030E04000000000000032525252500000000
(1693914181.567222) can0 601##4D8E3030E04000000000000032525252500000000
(1693914181.567223) can0 101##4D805060000000000
(1693914181.567223) can0 101##4D805060000000000
(1693914181.567224) can0 201##4C46401
(1693914181.567224) can0 201##4C46401
(1693914181.582013) can0 010##42802004006AA27
(1693914181.582013) can0 010##42802004006AA27
(1693914181.594809) can0 303##4C500FF00FFFF01000FFF000FFFFF000000000000
(1693914181.594809) can0 303##4C500FF00FFFF01000FFF000FFFFF000000000000
(1693914181.617165) can0 601##4D9E3030E04000000000000032525252500000000
(1693914181.617165) can0 601##4D9E3030E04000000000000032525252500000000
(1693914181.617167) can0 101##4D905060000000000
(1693914181.617167) can0 101##4D905060000000000
(1693914181.631729) can0 010##429020040061246
(1693914181.631729) can0 010##429020040061246
(1693914181.645199) can0 303##4C600FF00FFFF01000FFF000FFFFF000000000000
(1693914181.645199) can0 303##4C600FF00FFFF01000FFF000FFFFF000000000000
(1693914181.667254) can0 601##4DAE3030E04000000000000032525252500000000
(1693914181.667254) can0 601##4DAE3030E04000000000000032525252500000000
(1693914181.667255) can0 101##4DA05060000000000
(1693914181.667255) can0 101##4DA05060000000000
(1693914181.680625) can0 401##40102000000000000
(1693914181.680625) can0 401##40102000000000000
(1693914181.681926) can0 010##42A02004006CAC4
(1693914181.681926) can0 010##42A02004006CAC4
(1693914181.694804) can0 303##4C700FF00FFFF01000FFF000FFFFF000000000000
(1693914181.694804) can0 303##4C700FF00FFFF01000FFF000FFFFF000000000000
(1693914181.717150) can0 601##4DBE3030E04000000000000032525252500000000
(1693914181.717150) can0 601##4DBE3030E04000000000000032525252500000000
(1693914181.717151) can0 101##4DB05070000000000
(1693914181.717151) can0 101##4DB05070000000000
(1693914181.731823) can0 010##42B0200400672A5
(1693914181.731823) can0 010##42B0200400672A5
(1693914181.744779) can0 303##4C800FF00FFFF01000FFF000FFFFF000000000000
(1693914181.744779) can0 303##4C800FF00FFFF01000FFF000FFFFF000000000000
(1693914181.767185) can0 601##4DCE2030E04000000000000032525252500000000
(1693914181.767185) can0 601##4DCE2030E04000000000000032525252500000000
(1693914181.767187) can0 101##4DC05070000000000
(1693914181.767187) can0 101##4DC05070000000000
(1693914181.781844) can0 010##42C020040066BE1
(1693914181.781844) can0 010##42C020040066BE1
(1693914181.794804) can0 303##4C900FF00FFFF01000FFF000FFFFF000000000000
(1693914181.794804) can0 303##4C900FF00FFFF01000FFF000FFFFF000000000000
(1693914181.817184) can0 601##4DDE2030E04000000000000032525252500000000
(1693914181.817184) can0 601##4DDE2030E04000000000000032525252500000000
(1693914181.817185) can0 101##4DD05070000000000
(1693914181.817185) can0 101##4DD05070000000000
(1693914181.817185) can0 201##4C54601
(1693914181.817185) can0 201##4C54601
(1693914181.832264) can0 010##42D02004006D380
(1693914181.832264) can0 010##42D02004006D380
(1693914181.844855) can0 303##4CA00FF00FFFF01000FFF000FFFFF000000000000
(1693914181.844855) can0 303##4CA00FF00FFFF01000FFF000FFFFF000000000000
(1693914181.867198) can0 601##4DEE1030E04000000000000032525252500000000
(1693914181.867198) can0 601##4DEE1030E04000000000000032525252500000000
(1693914181.867199) can0 101##4DE05070000000000
(1693914181.867199) can0 101##4DE05070000000000
(1693914181.881823) can0 010##42E020040060B02
(1693914181.881823) can0 010##42E020040060B02
(1693914181.894787) can0 303##4CB00FF00FFFF01000FFF000FFFFF000000000000
(1693914181.894787) can0 303##4CB00FF00FFFF01000FFF000FFFFF000000000000
(1693914181.917081) can0 601##4DFE1030E04000000000000032525252500000000
(1693914181.917081) can0 601##4DFE1030E04000000000000032525252500000000
(1693914181.917082) can0 101##4DF05070000000000
(1693914181.917082) can0 101##4DF05070000000000
(1693914181.932216) can0 010##42F02004006B363
(1693914181.932216) can0 010##42F02004006B363
(1693914181.944786) can0 303##4CC00FF00FFFF01000FFF000FFFFF000000000000
(1693914181.944786) can0 303##4CC00FF00FFFF01000FFF000FFFFF000000000000
(1693914181.967268) can0 601##4E0E1030E04000000000000032525252500000000
(1693914181.967268) can0 601##4E0E1030E04000000000000032525252500000000
(1693914181.967269) can0 101##4E005070000000000
(1693914181.967269) can0 101##4E005070000000000
(1693914181.981718) can0 010##430020040060EF1
(1693914181.981718) can0 010##430020040060EF1
(1693914181.994853) can0 303##4CD00FF00FFFF01000FFF000FFFFF000000000000
(1693914181.994853) can0 303##4CD00FF00FFFF01000FFF000FFFFF000000000000
(1693914182.017164) can0 601##4E1E1030E04000000000000032525252500000000
(1693914182.017164) can0 601##4E1E1030E04000000000000032525252500000000
(1693914182.017165) can0 101##4E105070000000000
(1693914182.017165) can0 101##4E105070000000000
(1693914182.031675) can0 010##43102004006B690
(1693914182.031675) can0 010##43102004006B690
(1693914182.044852) can0 303##4CE00FF00FFFF01000FFF000FFFFF000000000000
(1693914182.044852) can0 303##4CE00FF00FFFF01000FFF000FFFFF000000000000
(1693914182.067257) can0 601##4E2E1030E04000000000000032525252500000000
(1693914182.067257) can0 601##4E2E1030E04000000000000032525252500000000
(1693914182.067258) can0 101##4E205070000000000
(1693914182.067258) can0 101##4E205070000000000
(1693914182.067259) can0 201##4C64601
(1693914182.067259) can0 201##4C64601
(1693914182.081671) can0 010##432020040066E12
(1693914182.081671) can0 010##432020040066E12
(1693914182.094856) can0 303##4CF00FF00FFFF01000FFF000FFFFF000000000000
(1693914182.094856) can0 303##4CF00FF00FFFF01000FFF000FFFFF000000000000
(1693914182.117214) can0 601##4E3E0030E04000000000000032525252500000000
(1693914182.117214) can0 601##4E3E0030E04000000000000032525252500000000
(1693914182.117215) can0 101##4E305070000000000
(1693914182.117215) can0 101##4E305070000000000
(1693914182.131686) can0 010##43302004006D673
(1693914182.131686) can0 010##43302004006D673
(1693914182.144853) can0 303##4D000FF00FFFF01000FFF000FFFFF000000000000
(1693914182.144853) can0 303##4D000FF00FFFF01000FFF000FFFFF000000000000
(1693914182.167203) can0 601##4E4E0030E04000000000000032525252500000000
(1693914182.167203) can0 601##4E4E0030E04000000000000032525252500000000
(1693914182.167204) can0 101##4E405070000000000
(1693914182.167204) can0 101##4E405070000000000
(1693914182.181525) can0 010##43402004006CF37
(1693914182.181525) can0 010##43402004006CF37
(1693914182.194845) can0 303##4D100FF00FFFF01000FFF000FFFFF000000000000
(1693914182.194845) can0 303##4D100FF00FFFF01000FFF000FFFFF000000000000
(1693914182.217223) can0 601##4E5E0030E04000000000000032525252500000000
(1693914182.217223) can0 601##4E5E0030E04000000000000032525252500000000
(1693914182.217224) can0 101##4E505070000000000
(1693914182.217224) can0 101##4E505070000000000
(1693914182.231736) can0 010##435020040067756
(1693914182.231736) can0 010##435020040067756
(1693914182.244780) can0 303##4D200FF00FFFF01000FFF000FFFFF000000000000
(1693914182.244780) can0 303##4D200FF00FFFF01000FFF000FFFFF000000000000
(1693914182.267097) can0 601##4E6E0030E04000000000000032525252500000000
(1693914182.267097) can0 601##4E6E0030E04000000000000032525252500000000
(1693914182.267098) can0 101##4E605070000000000
(1693914182.267098) can0 101##4E605070000000000
(1693914182.281672) can0 010##43602004006AFD4
(1693914182.281672) can0 010##43602004006AFD4
(1693914182.295113) can0 303##4D300FF00FFFF01000FFF000FFFFF000000000000
(1693914182.295113) can0 303##4D300FF00FFFF01000FFF000FFFFF000000000000
(1693914182.317214) can0 601##4E7E0030E04000000000000032525252500000000
(1693914182.317214) can0 601##4E7E0030E04000000000000032525252500000000
(1693914182.317215) can0 101##4E705070000000000
(1693914182.317215) can0 101##4E705070000000000
(1693914182.317216) can0 201##4C74601
(1693914182.317216) can0 201##4C74601
(1693914182.332143) can0 010##4370200400617B5
(1693914182.332143) can0 010##4370200400617B5
(1693914182.344854) can0 303##4D400FF00FFFF01000FFF000FFFFF000000000000
(1693914182.344854) can0 303##4D400FF00FFFF01000FFF000FFFFF000000000000
(1693914182.367220) can0 601##4E8E0030E04000000000000032525252500000000
(1693914182.367220) can0 601##4E8E0030E04000000000000032525252500000000
(1693914182.367221) can0 101##4E805070000000000
(1693914182.367221) can0 101##4E805070000000000
(1693914182.381646) can0 010##438020040069D5C
(1693914182.381646) can0 010##438020040069D5C
(1693914182.385707) can0 202##532465FB45A7B8400290019000D000000
(1693914182.385707) can0 202##532465FB45A7B8400290019000D000000
(1693914182.394822) can0 303##4D500FF00FFFF01000FFF000FFFFF000000000000
(1693914182.394822) can0 303##4D500FF00FFFF01000FFF000FFFFF000000000000
(1693914182.417088) can0 601##4E9E0030E04000000000000032525252500000000
(1693914182.417088) can0 601##4E9E0030E04000000000000032525252500000000
(1693914182.417090) can0 101##4E905070000000000
(1693914182.417090) can0 101##4E905070000000000
(1693914182.431595) can0 010##43902004006253D
(1693914182.431595) can0 010##43902004006253D
(1693914182.445221) can0 303##4D600FF00FFFF01000FFF000FFFFF000000000000
(1693914182.445221) can0 303##4D600FF00FFFF01000FFF000FFFFF000000000000
(1693914182.467215) can0 601##4EADF030E04000000000000032525252500000000
(1693914182.467215) can0 601##4EADF030E04000000000000032525252500000000
(1693914182.467216) can0 101##4EA05070000000000
(1693914182.467216) can0 101##4EA05070000000000
(1693914182.481624) can0 010##43A02004006FDBF
(1693914182.481624) can0 010##43A02004006FDBF
(1693914182.495019) can0 303##4D700FF00FFFF01000FFF000FFFFF000000000000
(1693914182.495019) can0 303##4D700FF00FFFF01000FFF000FFFFF000000000000
(1693914182.517248) can0 601##4EBDF030E04000000000000032525252500000000
(1693914182.517248) can0 601##4EBDF030E04000000000000032525252500000000
(1693914182.517249) can0 101##4EB05070000000000
(1693914182.517249) can0 101##4EB05070000000000
(1693914182.532101) can0 010##43B0200400645DE
(1693914182.532101) can0 010##43B0200400645DE
(1693914182.544853) can0 303##4D800FF00FFFF01000FFF000FFFFF000000000000
(1693914182.544853) can0 303##4D800FF00FFFF01000FFF000FFFFF000000000000
(1693914182.567251) can0 601##4ECDF030E04000000000000032525252500000000
(1693914182.567251) can0 601##4ECDF030E04000000000000032525252500000000
(1693914182.567252) can0 101##4EC05070000000000
(1693914182.567252) can0 101##4EC05070000000000
(1693914182.567253) can0 201##4C84601
(1693914182.567253) can0 201##4C84601
(1693914182.583108) can0 010##43C020040065C9A
(1693914182.583108) can0 010##43C020040065C9A
(1693914182.594938) can0 303##4D900FF00FFFF01000FFF000FFFFF000000000000
(1693914182.594938) can0 303##4D900FF00FFFF01000FFF000FFFFF000000000000
(1693914182.617249) can0 601##4EDDF030E04000000000000032525252500000000
(1693914182.617249) can0 601##4EDDF030E04000000000000032525252500000000
(1693914182.617250) can0 101##4ED05070000000000
(1693914182.617250) can0 101##4ED05070000000000
(1693914182.632042) can0 010##43D02004006E4FB
(1693914182.632042) can0 010##43D02004006E4FB
(1693914182.644840) can0 303##4DA00FF00FFFF01000FFF000FFFFF000000000000
(1693914182.644840) can0 303##4DA00FF00FFFF01000FFF000FFFFF000000000000
(1693914182.667223) can0 601##4EEDF030E04000000000000032525252500000000
(1693914182.667223) can0 601##4EEDF030E04000000000000032525252500000000
(1693914182.667224) can0 101##4EE05070000000000
(1693914182.667224) can0 101##4EE05070000000000
(1693914182.681640) can0 010##43E020040063C79
(1693914182.681640) can0 010##43E020040063C79
(1693914182.695220) can0 303##4DB00FF00FFFF01000FFF000FFFFF000000000000
(1693914182.695220) can0 303##4DB00FF00FFFF01000FFF000FFFFF000000000000
(1693914182.717286) can0 601##4EFDF030E04000000000000032525252500000000
(1693914182.717286) can0 601##4EFDF030E04000000000000032525252500000000
(1693914182.717287) can0 101##4EF05070000000000
(1693914182.717287) can0 101##4EF05070000000000
(1693914182.731539) can0 010##43F020040068418
(1693914182.731539) can0 010##43F020040068418
(1693914182.744786) can0 303##4DC00FF00FFFF01000FFF000FFFFF000000000000
(1693914182.744786) can0 303##4DC00FF00FFFF01000FFF000FFFFF000000000000
(1693914182.767231) can0 601##4F0DE030E04000000000000032525252500000000
(1693914182.767231) can0 601##4F0DE030E04000000000000032525252500000000
(1693914182.767232) can0 101##4F005070000000000
(1693914182.767232) can0 101##4F005070000000000
(1693914182.781562) can0 010##440020040068A90
(1693914182.781562) can0 010##440020040068A90
(1693914182.794883) can0 303##4DD00FF00FFFF01000FFF000FFFFF000000000000
(1693914182.794883) can0 303##4DD00FF00FFFF01000FFF000FFFFF000000000000
(1693914182.817167) can0 601##4F1DE030E04000000000000032525252500000000
(1693914182.817167) can0 601##4F1DE030E04000000000000032525252500000000
(1693914182.817169) can0 101##4F105070000000000
(1693914182.817169) can0 101##4F105070000000000
(1693914182.817170) can0 201##4C94601
(1693914182.817170) can0 201##4C94601
(1693914182.831486) can0 010##4410200400632F1
(1693914182.831486) can0 010##4410200400632F1
(1693914182.844799) can0 303##4DE00FF00FFFF01000FFF000FFFFF000000000000
(1693914182.844799) can0 303##4DE00FF00FFFF01000FFF000FFFFF000000000000
(1693914182.867174) can0 601##4F2DE030E04000000000000032525252500000000
(1693914182.867174) can0 601##4F2DE030E04000000000000032525252500000000
(1693914182.867175) can0 101##4F205070000000000
(1693914182.867175) can0 101##4F205070000000000
(1693914182.883314) can0 010##44202004006EA73
(1693914182.883314) can0 010##44202004006EA73
(1693914182.894856) can0 303##4DF00FF00FFFF01000FFF000FFFFF000000000000
(1693914182.894856) can0 303##4DF00FF00FFFF01000FFF000FFFFF000000000000
(1693914182.917222) can0 601##4F3DE030E04000000000000032525252500000000
(1693914182.917222) can0 601##4F3DE030E04000000000000032525252500000000
(1693914182.917223) can0 101##4F305070000000000
(1693914182.917223) can0 101##4F305070000000000
(1693914182.931515) can0 010##443020040065212
(1693914182.931515) can0 010##443020040065212
(1693914182.944865) can0 303##4E000FF00FFFF01000FFF000FFFFF000000000000
(1693914182.944865) can0 303##4E000FF00FFFF01000FFF000FFFFF000000000000
(1693914182.967156) can0 601##4F4DE030E04000000000000032525252500000000
(1693914182.967156) can0 601##4F4DE030E04000000000000032525252500000000
(1693914182.967158) can0 101##4F405070000000000
(1693914182.967158) can0 101##4F405070000000000
(1693914182.981579) can0 010##444020040064B56
(1693914182.981579) can0 010##444020040064B56
(1693914182.994870) can0 303##4E100FF00FFFF01000FFF000FFFFF000000000000
(1693914182.994870) can0 303##4E100FF00FFFF01000FFF000FFFFF000000000000
(1693914183.017245) can0 601##4F5DE030E04000000000000032525252500000000
(1693914183.017245) can0 601##4F5DE030E04000000000000032525252500000000
(1693914183.017245) can0 101##4F505070000000000
(1693914183.017245) can0 101##4F505070000000000
(1693914183.031533) can0 010##44502004006F337
(1693914183.031533) can0 010##44502004006F337
(1693914183.044878) can0 303##4E200FF00FFFF01000FFF000FFFFF000000000000
(1693914183.044878) can0 303##4E200FF00FFFF01000FFF000FFFFF000000000000
(1693914183.067187) can0 601##4F6DE030E04000000000000032525252500000000
(1693914183.067187) can0 601##4F6DE030E04000000000000032525252500000000
(1693914183.067187) can0 101##4F605070000000000
(1693914183.067187) can0 101##4F605070000000000
(1693914183.067187) can0 201##4CA4601
(1693914183.067187) can0 201##4CA4601
(1693914183.081573) can0 010##446020040062BB5
(1693914183.081573) can0 010##446020040062BB5
(1693914183.094882) can0 303##4E300FF00FFFF01000FFF000FFFFF000000000000
(1693914183.094882) can0 303##4E300FF00FFFF01000FFF000FFFFF000000000000
(1693914183.117247) can0 601##4F7DD030E04000000000000032525252500000000
(1693914183.117247) can0 601##4F7DD030E04000000000000032525252500000000
(1693914183.117248) can0 101##4F705070000000000
(1693914183.117248) can0 101##4F705070000000000
(1693914183.131972) can0 010##4470200400693D4
(1693914183.131972) can0 010##4470200400693D4
(1693914183.144828) can0 303##4E400FF00FFFF01000FFF000FFFFF000000000000
(1693914183.144828) can0 303##4E400FF00FFFF01000FFF000FFFFF000000000000
(1693914183.167329) can0 601##4F8DD030E04000000000000032525252500000000
(1693914183.167329) can0 601##4F8DD030E04000000000000032525252500000000
(1693914183.167330) can0 101##4F805070000000000
(1693914183.167330) can0 101##4F805070000000000
(1693914183.181954) can0 010##44802004006193D
(1693914183.181954) can0 010##44802004006193D
(1693914183.194813) can0 303##4E500FF00FFFF01000FFF000FFFFF000000000000
(1693914183.194813) can0 303##4E500FF00FFFF01000FFF000FFFFF000000000000
(1693914183.217336) can0 601##4F9DD030E04000000000000032525252500000000
(1693914183.217336) can0 601##4F9DD030E04000000000000032525252500000000
(1693914183.217337) can0 101##4F905070000000000
(1693914183.217337) can0 101##4F905070000000000
(1693914183.231554) can0 010##44902004006A15C
(1693914183.231554) can0 010##44902004006A15C
(1693914183.244821) can0 303##4E600FF00FFFF01000FFF000FFFFF000000000000
(1693914183.244821) can0 303##4E600FF00FFFF01000FFF000FFFFF000000000000
(1693914183.267333) can0 601##4FADD030E04000000000000032525252500000000
(1693914183.267333) can0 601##4FADD030E04000000000000032525252500000000
(1693914183.267334) can0 101##4FA05070000000000
(1693914183.267334) can0 101##4FA05070000000000
(1693914183.281948) can0 010##44A0200400679DE
(1693914183.281948) can0 010##44A0200400679DE
(1693914183.294836) can0 303##4E700FF00FFFF01000FFF000FFFFF000000000000
(1693914183.294836) can0 303##4E700FF00FFFF01000FFF000FFFFF000000000000
(1693914183.317259) can0 601##4FBDD030E04000000000000032525252500000000
(1693914183.317259) can0 601##4FBDD030E04000000000000032525252500000000
(1693914183.317260) can0 101##4FB05070000000000
(1693914183.317260) can0 101##4FB05070000000000
(1693914183.317261) can0 201##4CB4601
(1693914183.317261) can0 201##4CB4601
(1693914183.331497) can0 010##44B02004006C1BF
(1693914183.331497) can0 010##44B02004006C1BF
(1693914183.344820) can0 303##4E800FF00FFFF01000FFF000FFFFF000000000000
(1693914183.344820) can0 303##4E800FF00FFFF01000FFF000FFFFF000000000000
(1693914183.367353) can0 601##4FCDD030E04000000000000032525252500000000
(1693914183.367353) can0 601##4FCDD030E04000000000000032525252500000000
(1693914183.367355) can0 101##4FC05070000000000
(1693914183.367355) can0 101##4FC05070000000000
(1693914183.381516) can0 010##44C02004006D8FB
(1693914183.381516) can0 010##44C02004006D8FB
(1693914183.386296) can0 202##533465FB447613200140019000D000000
(1693914183.386296) can0 202##533465FB447613200140019000D000000
(1693914183.394871) can0 303##4E900FF00FFFF01000FFF000FFFFF000000000000
(1693914183.394871) can0 303##4E900FF00FFFF01000FFF000FFFFF000000000000
(1693914183.417347) can0 601##4FDDD030E04000000000000032525252500000000
(1693914183.417347) can0 601##4FDDD030E04000000000000032525252500000000
(1693914183.417348) can0 101##4FD05070000000000
(1693914183.417348) can0 101##4FD05070000000000
(1693914183.431922) can0 010##44D02004006609A
(1693914183.431922) can0 010##44D02004006609A
(1693914183.444894) can0 303##4EA00FF00FFFF01000FFF000FFFFF000000000000
(1693914183.444894) can0 303##4EA00FF00FFFF01000FFF000FFFFF000000000000
(1693914183.467316) can0 601##4FEDD030E04000000000000032525252500000000
(1693914183.467316) can0 601##4FEDD030E04000000000000032525252500000000
(1693914183.467317) can0 101##4FE05070000000000
(1693914183.467317) can0 101##4FE05070000000000
(1693914183.481942) can0 010##44E02004006B818
(1693914183.481942) can0 010##44E02004006B818
(1693914183.494894) can0 303##4EB00FF00FFFF01000FFF000FFFFF000000000000
(1693914183.494894) can0 303##4EB00FF00FFFF01000FFF000FFFFF000000000000
(1693914183.517149) can0 601##4FFDD030E04000000000000032525252500000000
(1693914183.517149) can0 601##4FFDD030E04000000000000032525252500000000
(1693914183.517150) can0 101##4FF05070000000000
(1693914183.517150) can0 101##4FF05070000000000
(1693914183.531403) can0 010##44F020040060079
(1693914183.531403) can0 010##44F020040060079
(1693914183.544850) can0 303##4EC00FF00FFFF01000FFF000FFFFF000000000000
(1693914183.544850) can0 303##4EC00FF00FFFF01000FFF000FFFFF000000000000
(1693914183.567303) can0 601##400DC030E04000000000000032525252500000000
(1693914183.567303) can0 601##400DC030E04000000000000032525252500000000
(1693914183.567304) can0 101##40005070000000000
(1693914183.567304) can0 101##40005070000000000
(1693914183.567304) can0 201##4CC4601
(1693914183.567304) can0 201##4CC4601
(1693914183.581572) can0 010##45002004006BDEB
(1693914183.581572) can0 010##45002004006BDEB
(1693914183.594838) can0 303##4ED00FF00FFFF01000FFF000FFFFF000000000000
(1693914183.594838) can0 303##4ED00FF00FFFF01000FFF000FFFFF000000000000
(1693914183.617256) can0 601##401DC030E04000000000000032525252500000000
(1693914183.617256) can0 601##401DC030E04000000000000032525252500000000
(1693914183.617258) can0 101##40105070000000000
(1693914183.617258) can0 101##40105070000000000
(1693914183.631444) can0 010##45102004006058A
(1693914183.631444) can0 010##45102004006058A
(1693914183.644866) can0 303##4EE00FF00FFFF01000FFF000FFFFF000000000000
(1693914183.644866) can0 303##4EE00FF00FFFF01000FFF000FFFFF000000000000
(1693914183.667344) can0 601##402DD030E04000000000000032525252500000000
(1693914183.667344) can0 601##402DD030E04000000000000032525252500000000
(1693914183.667345) can0 101##40205070000000000
(1693914183.667345) can0 101##40205070000000000
(1693914183.681354) can0 010##45202004006DD08
(1693914183.681354) can0 010##45202004006DD08
(1693914183.694885) can0 303##4EF00FF00FFFF01000FFF000FFFFF000000000000
(1693914183.694885) can0 303##4EF00FF00FFFF01000FFF000FFFFF000000000000
(1693914183.717323) can0 601##403DD030E04000000000000032525252500000000
(1693914183.717323) can0 601##403DD030E04000000000000032525252500000000
(1693914183.717325) can0 101##40305070000000000
(1693914183.717325) can0 101##40305070000000000
(1693914183.731430) can0 010##453020040066569
(1693914183.731430) can0 010##453020040066569
(1693914183.745017) can0 303##4F000FF00FFFF01000FFF000FFFFF000000000000
(1693914183.745017) can0 303##4F000FF00FFFF01000FFF000FFFFF000000000000
(1693914183.767328) can0 601##404DD030E04000000000000032525252500000000
(1693914183.767328) can0 601##404DD030E04000000000000032525252500000000
(1693914183.767330) can0 101##40405070000000000
(1693914183.767330) can0 101##40405070000000000
(1693914183.781878) can0 010##454020040067C2D
(1693914183.781878) can0 010##454020040067C2D
(1693914183.794872) can0 303##4F100FF00FFFF01000FFF000FFFFF000000000000
(1693914183.794872) can0 303##4F100FF00FFFF01000FFF000FFFFF000000000000
(1693914183.817355) can0 601##405DC030E04000000000000032525252500000000
(1693914183.817355) can0 601##405DC030E04000000000000032525252500000000
(1693914183.817356) can0 101##40505070000000000
(1693914183.817356) can0 101##40505070000000000
(1693914183.817357) can0 201##4CD4601
(1693914183.817357) can0 201##4CD4601
(1693914183.831401) can0 010##45502004006C44C
(1693914183.831401) can0 010##45502004006C44C
(1693914183.844881) can0 303##4F200FF00FFFF01000FFF000FFFFF000000000000
(1693914183.844881) can0 303##4F200FF00FFFF01000FFF000FFFFF000000000000
(1693914183.867335) can0 601##406DC030E04000000000000032525252500000000
(1693914183.867335) can0 601##406DC030E04000000000000032525252500000000
(1693914183.867337) can0 101##40605070000000000
(1693914183.867337) can0 101##40605070000000000
(1693914183.881855) can0 010##456020040061CCE
(1693914183.881855) can0 010##456020040061CCE
(1693914183.894902) can0 303##4F300FF00FFFF01000FFF000FFFFF000000000000
(1693914183.894902) can0 303##4F300FF00FFFF01000FFF000FFFFF000000000000
(1693914183.917378) can0 601##407DC030E04000000000000032525252500000000
(1693914183.917378) can0 601##407DC030E04000000000000032525252500000000
(1693914183.917379) can0 101##40705070000000000
(1693914183.917379) can0 101##40705070000000000
(1693914183.931382) can0 010##45702004006A4AF
(1693914183.931382) can0 010##45702004006A4AF
(1693914183.945220) can0 303##4F400FF00FFFF01000FFF000FFFFF000000000000
(1693914183.945220) can0 303##4F400FF00FFFF01000FFF000FFFFF000000000000
(1693914183.967366) can0 601##408DC030E04000000000000032525252500000000
(1693914183.967366) can0 601##408DC030E04000000000000032525252500000000
(1693914183.967367) can0 101##40805070000000000
(1693914183.967367) can0 101##40805070000000000
(1693914183.981531) can0 010##458020040062E46
(1693914183.981531) can0 010##458020040062E46
(1693914183.994909) can0 303##4F500FF00FFFF01000FFF000FFFFF000000000000
(1693914183.994909) can0 303##4F500FF00FFFF01000FFF000FFFFF000000000000
(1693914184.017290) can0 601##409DC030E04000000000000032525252500000000
(1693914184.017290) can0 601##409DC030E04000000000000032525252500000000
(1693914184.017291) can0 101##40905070000000000
(1693914184.017291) can0 101##40905070000000000
(1693914184.031365) can0 010##459020040069627
(1693914184.031365) can0 010##459020040069627
(1693914184.044883) can0 303##4F600FF00FFFF01000FFF000FFFFF000000000000
(1693914184.044883) can0 303##4F600FF00FFFF01000FFF000FFFFF000000000000
(1693914184.067305) can0 601##40ADC030E04000000000000032525252500000000
(1693914184.067305) can0 601##40ADC030E04000000000000032525252500000000
(1693914184.067306) can0 101##40A05070000000000
(1693914184.067306) can0 101##40A05070000000000
(1693914184.067306) can0 201##4CE4601
(1693914184.067306) can0 201##4CE4601
(1693914184.081425) can0 010##45A020040064EA5
(1693914184.081425) can0 010##45A020040064EA5
(1693914184.094909) can0 303##4F700FF00FFFF01000FFF000FFFFF000000000000
(1693914184.094909) can0 303##4F700FF00FFFF01000FFF000FFFFF000000000000
(1693914184.117325) can0 601##40BDC030E04000000000000032525252500000000
(1693914184.117325) can0 601##40BDC030E04000000000000032525252500000000
(1693914184.117327) can0 101##40B05070000000000
(1693914184.117327) can0 101##40B05070000000000
(1693914184.134037) can0 010##45B02004006F6C4
(1693914184.134037) can0 010##45B02004006F6C4
(1693914184.145183) can0 303##4F800FF00FFFF01000FFF000FFFFF000000000000
(1693914184.145183) can0 303##4F800FF00FFFF01000FFF000FFFFF000000000000
(1693914184.167388) can0 601##40CDC030E04000000000000032525252500000000
(1693914184.167388) can0 601##40CDC030E04000000000000032525252500000000
(1693914184.167389) can0 101##40C05070000000000
(1693914184.167389) can0 101##40C05070000000000
(1693914184.181382) can0 010##45C02004006EF80
(1693914184.181382) can0 010##45C02004006EF80
(1693914184.194887) can0 303##4F900FF00FFFF01000FFF000FFFFF000000000000
(1693914184.194887) can0 303##4F900FF00FFFF01000FFF000FFFFF000000000000
(1693914184.217396) can0 601##40DDC030E04000000000000032525252500000000
(1693914184.217396) can0 601##40DDC030E04000000000000032525252500000000
(1693914184.217397) can0 101##40D05070000000000
(1693914184.217397) can0 101##40D05070000000000
(1693914184.232021) can0 010##45D0200400657E1
(1693914184.232021) can0 010##45D0200400657E1
(1693914184.244913) can0 303##4FA00FF00FFFF01000FFF000FFFFF000000000000
(1693914184.244913) can0 303##4FA00FF00FFFF01000FFF000FFFFF000000000000
(1693914184.267339) can0 601##40EDC030E04000000000000032525252500000000
(1693914184.267339) can0 601##40EDC030E04000000000000032525252500000000
(1693914184.267340) can0 101##40E05070000000000
(1693914184.267340) can0 101##40E05070000000000
(1693914184.281461) can0 010##45E020040068F63
(1693914184.281461) can0 010##45E020040068F63
(1693914184.294911) can0 303##4FB00FF00FFFF01000FFF000FFFFF000000000000
(1693914184.294911) can0 303##4FB00FF00FFFF01000FFF000FFFFF000000000000
(1693914184.317465) can0 601##40FDC030E04000000000000032525252500000000
(1693914184.317465) can0 601##40FDC030E04000000000000032525252500000000
(1693914184.317466) can0 101##40F05070000000000
(1693914184.317466) can0 101##40F05070000000000
(1693914184.317467) can0 201##4CF4601
(1693914184.317467) can0 201##4CF4601
(1693914184.332088) can0 010##45F020040063702
(1693914184.332088) can0 010##45F020040063702
(1693914184.344985) can0 303##4FC00FF00FFFF01000FFF000FFFFF000000000000
(1693914184.344985) can0 303##4FC00FF00FFFF01000FFF000FFFFF000000000000
(1693914184.367516) can0 601##410DC030E04000000000000032525252500000000
(1693914184.367516) can0 601##410DC030E04000000000000032525252500000000
(1693914184.367517) can0 101##41005070000000000
(1693914184.367517) can0 101##41005070000000000
(1693914184.381384) can0 010##46002004006E466
(1693914184.381384) can0 010##46002004006E466
(1693914184.387151) can0 202##534465FB4455FA0001C0019000D000001
(1693914184.387151) can0 202##534465FB4455FA0001C0019000D000001
(1693914184.394848) can0 303##4FD00FF00FFFF01000FFF000FFFFF000000000000
(1693914184.394848) can0 303##4FD00FF00FFFF01000FFF000FFFFF000000000000
(1693914184.417366) can0 601##411DC030E04000000000000032525252500000000
(1693914184.417366) can0 601##411DC030E04000000000000032525252500000000
(1693914184.417367) can0 101##41105070000000000
(1693914184.417367) can0 101##41105070000000000
(1693914184.431288) can0 010##461020040065C07
(1693914184.431288) can0 010##461020040065C07
(1693914184.444913) can0 303##4FE00FF00FFFF01000FFF000FFFFF000000000000
(1693914184.444913) can0 303##4FE00FF00FFFF01000FFF000FFFFF000000000000
(1693914184.467286) can0 601##412DC030E04000000000000032525252500000000
(1693914184.467286) can0 601##412DC030E04000000000000032525252500000000
(1693914184.467287) can0 101##41205070000000000
(1693914184.467287) can0 101##41205070000000000
(1693914184.481249) can0 010##462020040068485
(1693914184.481249) can0 010##462020040068485
(1693914184.494911) can0 303##4FF00FF00FFFF01000FFF000FFFFF000000000000
(1693914184.494911) can0 303##4FF00FF00FFFF01000FFF000FFFFF000000000000
(1693914184.517303) can0 601##413DC030E04000000000000032525252500000000
(1693914184.517303) can0 601##413DC030E04000000000000032525252500000000
(1693914184.517306) can0 101##41305070000000000
(1693914184.517306) can0 101##41305070000000000
(1693914184.531239) can0 010##463020040063CE4
(1693914184.531239) can0 010##463020040063CE4
(1693914184.544905) can0 303##40000FF00FFFF01000FFF000FFFFF000000000000
(1693914184.544905) can0 303##40000FF00FFFF01000FFF000FFFFF000000000000
(1693914184.567305) can0 601##414DC030E04000000000000032525252500000000
(1693914184.567305) can0 601##414DC030E04000000000000032525252500000000
(1693914184.567307) can0 101##41405070000000000
(1693914184.567307) can0 101##41405070000000000
(1693914184.567308) can0 201##4D04601
(1693914184.567308) can0 201##4D04601
(1693914184.581320) can0 010##4640200400625A0
(1693914184.581320) can0 010##4640200400625A0
(1693914184.595186) can0 303##40100FF00FFFF01000FFF000FFFFF000000000000
(1693914184.595186) can0 303##40100FF00FFFF01000FFF000FFFFF000000000000
(1693914184.617443) can0 601##415DC030E04000000000000032525252500000000
(1693914184.617443) can0 601##415DC030E04000000000000032525252500000000
(1693914184.617444) can0 101##41505070000000000
(1693914184.617444) can0 101##41505070000000000
(1693914184.631254) can0 010##465020040069DC1
(1693914184.631254) can0 010##465020040069DC1
(1693914184.644905) can0 303##40200FF00FFFF01000FFF000FFFFF000000000000
(1693914184.644905) can0 303##40200FF00FFFF01000FFF000FFFFF000000000000
(1693914184.667507) can0 601##416DC030E04000000000000032525252500000000
(1693914184.667507) can0 601##416DC030E04000000000000032525252500000000
(1693914184.667508) can0 101##41605070000000000
(1693914184.667508) can0 101##41605070000000000
(1693914184.681274) can0 010##466020040064543
(1693914184.681274) can0 010##466020040064543
(1693914184.695189) can0 303##40300FF00FFFF01000FFF000FFFFF000000000000
(1693914184.695189) can0 303##40300FF00FFFF01000FFF000FFFFF000000000000
(1693914184.717521) can0 601##417DC030E04000000000000032525252500000000
(1693914184.717521) can0 601##417DC030E04000000000000032525252500000000
(1693914184.717522) can0 101##41705070000000000
(1693914184.717522) can0 101##41705070000000000
(1693914184.731933) can0 010##46702004006FD22
(1693914184.731933) can0 010##46702004006FD22
(1693914184.744905) can0 303##40400FF00FFFF01000FFF000FFFFF000000000000
(1693914184.744905) can0 303##40400FF00FFFF01000FFF000FFFFF000000000000
(1693914184.767266) can0 601##418DC030E04000000000000032525252500000000
(1693914184.767266) can0 601##418DC030E04000000000000032525252500000000
(1693914184.767267) can0 101##41805070000000000
(1693914184.767267) can0 101##41805070000000000
(1693914184.781260) can0 010##46802005802356F
(1693914184.781260) can0 010##46802005802356F
(1693914184.795035) can0 303##40500FF00FFFF01000FFF000FFFFF000000000000
(1693914184.795035) can0 303##40500FF00FFFF01000FFF000FFFFF000000000000
(1693914184.817282) can0 601##419DC030E04000000000000032525252500000000
(1693914184.817282) can0 601##419DC030E04000000000000032525252500000000
(1693914184.817284) can0 101##41905070000000000
(1693914184.817284) can0 101##41905070000000000
(1693914184.817285) can0 201##4D14601
(1693914184.817285) can0 201##4D14601
(1693914184.831269) can0 010##469020058028D0E
(1693914184.831269) can0 010##469020058028D0E
(1693914184.844844) can0 303##40600FF00FFFF01000FFF000FFFFF000000000000
(1693914184.844844) can0 303##40600FF00FFFF01000FFF000FFFFF000000000000
(1693914184.867457) can0 601##41ADC030E04000000000000032525252500000000
(1693914184.867457) can0 601##41ADC030E04000000000000032525252500000000
(1693914184.867458) can0 101##41A05070000000000
(1693914184.867458) can0 101##41A05070000000000
(1693914184.881227) can0 010##46A02005802558C
(1693914184.881227) can0 010##46A02005802558C
