(1693907029.287659) can0 601##42FD9030D02000000000000032023242300000000
(1693907029.287659) can0 601##42FD9030D02000000000000032023242300000000
(1693907029.287660) can0 101##42F06000000000000
(1693907029.287660) can0 101##42F06000000000000
(1693907029.293883) can0 010##40B020040061C53
(1693907029.293883) can0 010##40B020040061C53
(1693907029.312167) can0 303##41C000001010001000FFF000FFFFF000000000000
(1693907029.312167) can0 303##41C000001010001000FFF000FFFFF000000000000
(1693907029.337648) can0 601##430D9030D02000000000000032023242300000000
(1693907029.337648) can0 601##430D9030D02000000000000032023242300000000
(1693907029.337649) can0 101##43006000000000000
(1693907029.337649) can0 101##43006000000000000
(1693907029.343890) can0 010##40C020040060517
(1693907029.343890) can0 010##40C020040060517
(1693907029.362201) can0 303##41D000002010001000FFF000FFFFF000000000000
(1693907029.362201) can0 303##41D000002010001000FFF000FFFFF000000000000
(1693907029.387594) can0 601##431D9030D02000000000000032023242300000000
(1693907029.387594) can0 601##431D9030D02000000000000032023242300000000
(1693907029.387595) can0 101##43106000000000000
(1693907029.387595) can0 101##43106000000000000
(1693907029.393792) can0 010##40D02004006BD76
(1693907029.393792) can0 010##40D02004006BD76
(1693907029.412147) can0 303##41E00FF00FFFF01000FFF000FFFFF000000000000
(1693907029.412147) can0 303##41E00FF00FFFF01000FFF000FFFFF000000000000
(1693907029.437674) can0 601##432D9030D02000000000000032023242300000000
(1693907029.437674) can0 601##432D9030D02000000000000032023242300000000
(1693907029.437675) can0 101##43206000000000000
(1693907029.437675) can0 101##43206000000000000
(1693907029.444094) can0 010##40E0200400665F4
(1693907029.444094) can0 010##40E0200400665F4
(1693907029.462380) can0 303##41F00FF00FFFF01000FFF000FFFFF000000000000
(1693907029.462380) can0 303##41F00FF00FFFF01000FFF000FFFFF000000000000
(1693907029.477123) can0 311##4010100000000
(1693907029.477123) can0 311##4010100000000
(1693907029.487684) can0 601##433D9030C02000000000000032023242300000000
(1693907029.487684) can0 601##433D9030C02000000000000032023242300000000
(1693907029.487686) can0 101##43306000000000000
(1693907029.487686) can0 101##43306000000000000
(1693907029.487686) can0 201##4A30001
(1693907029.487686) can0 201##4A30001
(1693907029.494412) can0 010##40F02004006DD95
(1693907029.494412) can0 010##40F02004006DD95
(1693907029.512461) can0 303##420000101000001000FFF000FFFFF000000000000
(1693907029.512461) can0 303##420000101000001000FFF000FFFFF000000000000
(1693907029.537723) can0 601##434D9030C02000000000000032023242300000000
(1693907029.537723) can0 601##434D9030C02000000000000032023242300000000
(1693907029.537724) can0 101##43406000000000000
(1693907029.537724) can0 101##43406000000000000
(1693907029.543920) can0 010##410020040066007
(1693907029.543920) can0 010##410020040066007
(1693907029.543921) can0 202##56900000000000000000019000E000000
(1693907029.543921) can0 202##56900000000000000000019000E000000
(1693907029.562333) can0 303##421000101000001000FFF000FFFFF000000000000
(1693907029.562333) can0 303##421000101000001000FFF000FFFFF000000000000
(1693907029.587782) can0 601##435D9030C02000000000000032023242300000000
(1693907029.587782) can0 601##435D9030C02000000000000032023242300000000
(1693907029.587784) can0 101##43506000000000000
(1693907029.587784) can0 101##43506000000000000
(1693907029.593863) can0 010##41102004006D866
(1693907029.593863) can0 010##41102004006D866
(1693907029.612221) can0 303##422000102000001000FFF000FFFFF000000000000
(1693907029.612221) can0 303##422000102000001000FFF000FFFFF000000000000
(1693907029.637759) can0 601##436D9030C02000000000000032023242300000000
(1693907029.637759) can0 601##436D9030C02000000000000032023242300000000
(1693907029.637760) can0 101##43606000000000000
(1693907029.637760) can0 101##43606000000000000
(1693907029.643915) can0 010##4120200400600E4
(1693907029.643915) can0 010##4120200400600E4
(1693907029.662193) can0 303##42300FF00FFFF01000FFF000FFFFF000000000000
(1693907029.662193) can0 303##42300FF00FFFF01000FFF000FFFFF000000000000
(1693907029.688202) can0 601##437D9030C02000000000000032023242300000000
(1693907029.688202) can0 601##437D9030C02000000000000032023242300000000
(1693907029.688204) can0 101##43706000000000000
(1693907029.688204) can0 101##43706000000000000
(1693907029.694198) can0 010##41302004006B885
(1693907029.694198) can0 010##41302004006B885
(1693907029.712459) can0 303##42400FF00FFFF01000FFF000FFFFF000000000000
(1693907029.712459) can0 303##42400FF00FFFF01000FFF000FFFFF000000000000
(1693907029.727626) can0 311##4020000010000
(1693907029.727626) can0 311##4020000010000
(1693907029.737761) can0 601##438D9030C02000000000000032023242300000000
(1693907029.737761) can0 601##438D9030C02000000000000032023242300000000
(1693907029.737762) can0 101##43806000000000000
(1693907029.737762) can0 101##43806000000000000
(1693907029.737763) can0 201##4A40001
(1693907029.737763) can0 201##4A40001
(1693907029.745939) can0 010##41402004006A1C1
(1693907029.745939) can0 010##41402004006A1C1
(1693907029.762219) can0 303##425000001000101000FFF000FFFFF000000000000
(1693907029.762219) can0 303##425000001000101000FFF000FFFFF000000000000
(1693907029.787908) can0 601##439D9030E02000000000000032023242300000000
(1693907029.787908) can0 601##439D9030E02000000000000032023242300000000
(1693907029.787909) can0 101##43906000000000000
(1693907029.787909) can0 101##43906000000000000
(1693907029.794353) can0 010##4150200400619A0
(1693907029.794353) can0 010##4150200400619A0
(1693907029.812482) can0 303##426000001000101000FFF000FFFFF000000000000
(1693907029.812482) can0 303##426000001000101000FFF000FFFFF000000000000
(1693907029.837754) can0 601##43AD9030E02000000000000032023242300000000
(1693907029.837754) can0 601##43AD9030E02000000000000032023242300000000
(1693907029.837755) can0 101##43A06000000000000
(1693907029.837755) can0 101##43A06000000000000
(1693907029.844346) can0 010##41602004006C122
(1693907029.844346) can0 010##41602004006C122
(1693907029.862205) can0 303##427000002000101000FFF000FFFFF000000000000
(1693907029.862205) can0 303##427000002000101000FFF000FFFFF000000000000
(1693907029.887744) can0 601##43BD9030E02000000000000032023242300000000
(1693907029.887744) can0 601##43BD9030E02000000000000032023242300000000
(1693907029.887745) can0 101##43B06000000000000
(1693907029.887745) can0 101##43B06000000000000
(1693907029.893628) can0 010##417020040067943
(1693907029.893628) can0 010##417020040067943
(1693907029.912241) can0 303##42800FF00FFFF01000FFF000FFFFF000000000000
(1693907029.912241) can0 303##42800FF00FFFF01000FFF000FFFFF000000000000
(1693907029.937617) can0 601##43CD9030E02000000000000032023242300000000
(1693907029.937617) can0 601##43CD9030E02000000000000032023242300000000
(1693907029.937618) can0 101##43C06000000000000
(1693907029.937618) can0 101##43C06000000000000
(1693907029.943738) can0 010##41802004006F3AA
(1693907029.943738) can0 010##41802004006F3AA
(1693907029.962158) can0 303##42900FF00FFFF01000FFF000FFFFF000000000000
(1693907029.962158) can0 303##42900FF00FFFF01000FFF000FFFFF000000000000
(1693907029.987640) can0 601##43DD9030E02000000000000032023242300000000
(1693907029.987640) can0 601##43DD9030E02000000000000032023242300000000
(1693907029.987642) can0 101##43D05000000000000
(1693907029.987642) can0 101##43D05000000000000
(1693907029.987642) can0 201##4A54601
(1693907029.987642) can0 201##4A54601
(1693907029.996126) can0 010##419020040064BCB
(1693907029.996126) can0 010##419020040064BCB
(1693907030.012152) can0 303##42A00FF00FFFF01000FFF000FFFFF000000000000
(1693907030.012152) can0 303##42A00FF00FFFF01000FFF000FFFFF000000000000
(1693907030.037704) can0 601##43ED9030E02000000000000032023242300000000
(1693907030.037704) can0 601##43ED9030E02000000000000032023242300000000
(1693907030.037705) can0 101##43E05000000000000
(1693907030.037705) can0 101##43E05000000000000
(1693907030.043993) can0 010##41A020040069349
(1693907030.043993) can0 010##41A020040069349
(1693907030.062269) can0 303##42B00FF00FFFF01000FFF000FFFFF000000000000
(1693907030.062269) can0 303##42B00FF00FFFF01000FFF000FFFFF000000000000
(1693907030.080813) can0 401##40001000000000000
(1693907030.080813) can0 401##40001000000000000
(1693907030.083739) can0 410##4000100
(1693907030.083739) can0 410##4000100
(1693907030.087747) can0 601##43FD9030E02000000000000032023242300000000
(1693907030.087747) can0 601##43FD9030E02000000000000032023242300000000
(1693907030.087748) can0 101##43F05000000000000
(1693907030.087748) can0 101##43F05000000000000
(1693907030.094207) can0 010##41B020040062B28
(1693907030.094207) can0 010##41B020040062B28
(1693907030.112483) can0 303##42C00FF00FFFF01000FFF000FFFFF000000000000
(1693907030.112483) can0 303##42C00FF00FFFF01000FFF000FFFFF000000000000
(1693907030.137781) can0 601##440D9030E02000000000000032023242300000000
(1693907030.137781) can0 601##440D9030E02000000000000032023242300000000
(1693907030.137783) can0 101##44005010000000000
(1693907030.137783) can0 101##44005010000000000
(1693907030.144339) can0 010##41C02004006326C
(1693907030.144339) can0 010##41C02004006326C
(1693907030.162274) can0 303##42D00FF00FFFF01000FFF000FFFFF000000000000
(1693907030.162274) can0 303##42D00FF00FFFF01000FFF000FFFFF000000000000
(1693907030.188214) can0 601##441D9030E02000000000000032023242300000000
(1693907030.188214) can0 601##441D9030E02000000000000032023242300000000
(1693907030.188216) can0 101##44105010000000000
(1693907030.188216) can0 101##44105010000000000
(1693907030.194303) can0 010##41D020040068A0D
(1693907030.194303) can0 010##41D020040068A0D
(1693907030.212213) can0 303##42E00FF00FFFF01000FFF000FFFFF000000000000
(1693907030.212213) can0 303##42E00FF00FFFF01000FFF000FFFFF000000000000
(1693907030.237767) can0 601##442D9030E02000000000000032023232300000000
(1693907030.237767) can0 601##442D9030E02000000000000032023232300000000
(1693907030.237768) can0 101##44205010000000000
(1693907030.237768) can0 101##44205010000000000
(1693907030.237769) can0 201##4A64601
(1693907030.237769) can0 201##4A64601
(1693907030.243843) can0 010##41E02004006528F
(1693907030.243843) can0 010##41E02004006528F
(1693907030.262288) can0 303##42F00FF00FFFF01000FFF000FFFFF000000000000
(1693907030.262288) can0 303##42F00FF00FFFF01000FFF000FFFFF000000000000
(1693907030.288243) can0 601##443D9030E02000000000000032023232300000000
(1693907030.288243) can0 601##443D9030E02000000000000032023232300000000
(1693907030.288244) can0 101##44305010000000000
(1693907030.288244) can0 101##44305010000000000
(1693907030.294310) can0 010##41F02004006EAEE
(1693907030.294310) can0 010##41F02004006EAEE
(1693907030.312482) can0 303##43000FF00FFFF01000FFF000FFFFF000000000000
(1693907030.312482) can0 303##43000FF00FFFF01000FFF000FFFFF000000000000
(1693907030.337764) can0 601##444D9030E02000000000000032023232300000000
(1693907030.337764) can0 601##444D9030E02000000000000032023232300000000
(1693907030.337766) can0 101##44405010000000000
(1693907030.337766) can0 101##44405010000000000
(1693907030.344285) can0 010##42002004006398A
(1693907030.344285) can0 010##42002004006398A
(1693907030.362270) can0 303##43100FF00FFFF01000FFF000FFFFF000000000000
(1693907030.362270) can0 303##43100FF00FFFF01000FFF000FFFFF000000000000
(1693907030.388220) can0 601##445D9030E02000000000000032023232300000000
(1693907030.388220) can0 601##445D9030E02000000000000032023232300000000
(1693907030.388222) can0 101##44505010000000000
(1693907030.388222) can0 101##44505010000000000
(1693907030.394213) can0 010##4210200400681EB
(1693907030.394213) can0 010##4210200400681EB
(1693907030.412453) can0 303##43200FF00FFFF01000FFF000FFFFF000000000000
(1693907030.412453) can0 303##43200FF00FFFF01000FFF000FFFFF000000000000
(1693907030.437910) can0 601##446D9030E02000000000000032023232300000000
(1693907030.437910) can0 601##446D9030E02000000000000032023232300000000
(1693907030.437911) can0 101##44605010000000000
(1693907030.437911) can0 101##44605010000000000
(1693907030.444300) can0 010##422020040065969
(1693907030.444300) can0 010##422020040065969
(1693907030.462296) can0 303##43300FF00FFFF01000FFF000FFFFF000000000000
(1693907030.462296) can0 303##43300FF00FFFF01000FFF000FFFFF000000000000
(1693907030.488236) can0 601##447D9030E02000000000000032023232300000000
(1693907030.488236) can0 601##447D9030E02000000000000032023232300000000
(1693907030.488237) can0 101##44705010000000000
(1693907030.488237) can0 101##44705010000000000
(1693907030.488238) can0 201##4A74601
(1693907030.488238) can0 201##4A74601
(1693907030.493973) can0 010##42302004006E108
(1693907030.493973) can0 010##42302004006E108
(1693907030.512463) can0 303##43400FF00FFFF01000FFF000FFFFF000000000000
(1693907030.512463) can0 303##43400FF00FFFF01000FFF000FFFFF000000000000
(1693907030.537799) can0 601##448DA030E02000000000000032023232300000000
(1693907030.537799) can0 601##448DA030E02000000000000032023232300000000
(1693907030.537800) can0 101##44805010000000000
(1693907030.537800) can0 101##44805010000000000
(1693907030.543978) can0 010##42402004006F84C
(1693907030.543978) can0 010##42402004006F84C
(1693907030.546008) can0 202##56A465FB40A0DCE00020019000E000000
(1693907030.546008) can0 202##56A465FB40A0DCE00020019000E000000
(1693907030.562300) can0 303##43500FF00FFFF01000FFF000FFFFF000000000000
(1693907030.562300) can0 303##43500FF00FFFF01000FFF000FFFFF000000000000
(1693907030.588113) can0 601##449DA030E02000000000000032023232300000000
(1693907030.588113) can0 601##449DA030E02000000000000032023232300000000
(1693907030.588114) can0 101##44905010000000000
(1693907030.588114) can0 101##44905010000000000
(1693907030.594273) can0 010##42502004006402D
(1693907030.594273) can0 010##42502004006402D
(1693907030.612291) can0 303##43600FF00FFFF01000FFF000FFFFF000000000000
(1693907030.612291) can0 303##43600FF00FFFF01000FFF000FFFFF000000000000
(1693907030.638125) can0 601##44ADA030E02000000000000032023232300000000
(1693907030.638125) can0 601##44ADA030E02000000000000032023232300000000
(1693907030.638126) can0 101##44A05010000000000
(1693907030.638126) can0 101##44A05010000000000
(1693907030.644271) can0 010##4260200400698AF
(1693907030.644271) can0 010##4260200400698AF
(1693907030.662470) can0 303##43700FF00FFFF01000FFF000FFFFF000000000000
(1693907030.662470) can0 303##43700FF00FFFF01000FFF000FFFFF000000000000
(1693907030.688261) can0 601##44BDA030E02000000000000032023232300000000
(1693907030.688261) can0 601##44BDA030E02000000000000032023232300000000
(1693907030.688262) can0 101##44B05010000000000
(1693907030.688262) can0 101##44B05010000000000
(1693907030.694287) can0 010##4270200400620CE
(1693907030.694287) can0 010##4270200400620CE
(1693907030.712462) can0 303##43800FF00FFFF01000FFF000FFFFF000000000000
(1693907030.712462) can0 303##43800FF00FFFF01000FFF000FFFFF000000000000
(1693907030.737828) can0 601##44CDA030E02000000000000032023232300000000
(1693907030.737828) can0 601##44CDA030E02000000000000032023232300000000
(1693907030.737829) can0 101##44C05010000000000
(1693907030.737829) can0 101##44C05010000000000
(1693907030.737829) can0 201##4A84601
(1693907030.737829) can0 201##4A84601
(1693907030.744252) can0 010##42802004006AA27
(1693907030.744252) can0 010##42802004006AA27
(1693907030.762288) can0 303##43900FF00FFFF01000FFF000FFFFF000000000000
(1693907030.762288) can0 303##43900FF00FFFF01000FFF000FFFFF000000000000
(1693907030.787816) can0 601##44DDA030E02000000000000032023232300000000
(1693907030.787816) can0 601##44DDA030E02000000000000032023232300000000
(1693907030.787817) can0 101##44D05010000000000
(1693907030.787817) can0 101##44D05010000000000
(1693907030.794304) can0 010##429020040061246
(1693907030.794304) can0 010##429020040061246
(1693907030.812252) can0 303##43A00FF00FFFF01000FFF000FFFFF000000000000
(1693907030.812252) can0 303##43A00FF00FFFF01000FFF000FFFFF000000000000
(1693907030.837846) can0 601##44EDA030E02000000000000032023232300000000
(1693907030.837846) can0 601##44EDA030E02000000000000032023232300000000
(1693907030.837847) can0 101##44E05010000000000
(1693907030.837847) can0 101##44E05010000000000
(1693907030.844251) can0 010##42A02004006CAC4
(1693907030.844251) can0 010##42A02004006CAC4
(1693907030.862287) can0 303##43B00FF00FFFF01000FFF000FFFFF000000000000
(1693907030.862287) can0 303##43B00FF00FFFF01000FFF000FFFFF000000000000
(1693907030.888244) can0 601##44FDA030E02000000000000032023232300000000
(1693907030.888244) can0 601##44FDA030E02000000000000032023232300000000
(1693907030.888246) can0 101##44F05010000000000
(1693907030.888246) can0 101##44F05010000000000
(1693907030.894241) can0 010##42B0200400672A5
(1693907030.894241) can0 010##42B0200400672A5
(1693907030.912442) can0 303##43C00FF00FFFF01000FFF000FFFFF000000000000
(1693907030.912442) can0 303##43C00FF00FFFF01000FFF000FFFFF000000000000
(1693907030.937819) can0 601##450DB030E02000000000000032023232300000000
(1693907030.937819) can0 601##450DB030E02000000000000032023232300000000
(1693907030.937820) can0 101##45005010000000000
(1693907030.937820) can0 101##45005010000000000
(1693907030.943832) can0 010##42C020040066BE1
(1693907030.943832) can0 010##42C020040066BE1
(1693907030.962319) can0 303##43D00FF00FFFF01000FFF000FFFFF000000000000
(1693907030.962319) can0 303##43D00FF00FFFF01000FFF000FFFFF000000000000
(1693907030.988250) can0 601##451DB030E02000000000000032023232300000000
(1693907030.988250) can0 601##451DB030E02000000000000032023232300000000
(1693907030.988251) can0 101##45105010000000000
(1693907030.988251) can0 101##45105010000000000
(1693907030.988252) can0 201##4A94601
(1693907030.988252) can0 201##4A94601
(1693907030.994195) can0 010##42D02004006D380
(1693907030.994195) can0 010##42D02004006D380
(1693907031.012254) can0 303##43E00FF00FFFF01000FFF000FFFFF000000000000
(1693907031.012254) can0 303##43E00FF00FFFF01000FFF000FFFFF000000000000
(1693907031.037810) can0 601##452DB030E06000000000000032023232300000000
(1693907031.037810) can0 601##452DB030E06000000000000032023232300000000
(1693907031.037811) can0 101##45205010000000000
(1693907031.037811) can0 101##45205010000000000
(1693907031.043801) can0 010##42E020040060B02
(1693907031.043801) can0 010##42E020040060B02
(1693907031.062292) can0 303##43F00FF00FFFF01000FFF000FFFFF000000000000
(1693907031.062292) can0 303##43F00FF00FFFF01000FFF000FFFFF000000000000
(1693907031.087862) can0 601##453DB030E06000000000000032023232300000000
(1693907031.087862) can0 601##453DB030E06000000000000032023232300000000
(1693907031.087863) can0 101##45305010000000000
(1693907031.087863) can0 101##45305010000000000
(1693907031.093927) can0 010##42F02004006B363
(1693907031.093927) can0 010##42F02004006B363
(1693907031.112463) can0 303##44000FF00FFFF01000FFF000FFFFF000000000000
(1693907031.112463) can0 303##44000FF00FFFF01000FFF000FFFFF000000000000
(1693907031.138290) can0 601##454DB030E06000000000000032023232300000000
(1693907031.138290) can0 601##454DB030E06000000000000032023232300000000
(1693907031.138291) can0 101##45405010000000000
(1693907031.138291) can0 101##45405010000000000
(1693907031.144228) can0 010##430020040060EF1
(1693907031.144228) can0 010##430020040060EF1
(1693907031.162277) can0 303##44100FF00FFFF01000FFF000FFFFF000000000000
(1693907031.162277) can0 303##44100FF00FFFF01000FFF000FFFFF000000000000
(1693907031.188287) can0 601##455DC030E06000000000000032023232300000000
(1693907031.188287) can0 601##455DC030E06000000000000032023232300000000
(1693907031.188288) can0 101##45505010000000000
(1693907031.188288) can0 101##45505010000000000
(1693907031.193748) can0 010##43102004006B690
(1693907031.193748) can0 010##43102004006B690
(1693907031.212500) can0 303##44200FF00FFFF01000FFF000FFFFF000000000000
(1693907031.212500) can0 303##44200FF00FFFF01000FFF000FFFFF000000000000
(1693907031.237818) can0 601##456DC030E06000000000000032023232300000000
(1693907031.237818) can0 601##456DC030E06000000000000032023232300000000
(1693907031.237819) can0 101##45605010000000000
(1693907031.237819) can0 101##45605010000000000
(1693907031.237819) can0 201##4AA4601
(1693907031.237819) can0 201##4AA4601
(1693907031.244021) can0 010##432020040066E12
(1693907031.244021) can0 010##432020040066E12
(1693907031.262286) can0 303##44300FF00FFFF01000FFF000FFFFF000000000000
(1693907031.262286) can0 303##44300FF00FFFF01000FFF000FFFFF000000000000
(1693907031.288271) can0 601##457DC030E06000000000000032023232300000000
(1693907031.288271) can0 601##457DC030E06000000000000032023232300000000
(1693907031.288272) can0 101##45705010000000000
(1693907031.288272) can0 101##45705010000000000
(1693907031.294222) can0 010##43302004006D673
(1693907031.294222) can0 010##43302004006D673
(1693907031.312251) can0 303##44400FF00FFFF01000FFF000FFFFF000000000000
(1693907031.312251) can0 303##44400FF00FFFF01000FFF000FFFFF000000000000
(1693907031.337861) can0 601##458DC030E06000000000000032023232300000000
(1693907031.337861) can0 601##458DC030E06000000000000032023232300000000
(1693907031.337862) can0 101##45805010000000000
(1693907031.337862) can0 101##45805010000000000
(1693907031.343749) can0 010##43402004006CF37
(1693907031.343749) can0 010##43402004006CF37
(1693907031.362285) can0 303##44500FF00FFFF01000FFF000FFFFF000000000000
(1693907031.362285) can0 303##44500FF00FFFF01000FFF000FFFFF000000000000
(1693907031.388298) can0 601##459DD030E06000000000000032023232300000000
(1693907031.388298) can0 601##459DD030E06000000000000032023232300000000
(1693907031.388299) can0 101##45905010000000000
(1693907031.388299) can0 101##45905010000000000
(1693907031.394163) can0 010##435020040067756
(1693907031.394163) can0 010##435020040067756
(1693907031.412458) can0 303##44600FF00FFFF01000FFF000FFFFF000000000000
(1693907031.412458) can0 303##44600FF00FFFF01000FFF000FFFFF000000000000
(1693907031.437863) can0 601##45ADD030E06000000000000032023232300000000
(1693907031.437863) can0 601##45ADD030E06000000000000032023232300000000
(1693907031.437863) can0 101##45A05010000000000
(1693907031.437863) can0 101##45A05010000000000
(1693907031.444224) can0 010##43602004006AFD4
(1693907031.444224) can0 010##43602004006AFD4
(1693907031.462222) can0 303##44700FF00FFFF01000FFF000FFFFF000000000000
(1693907031.462222) can0 303##44700FF00FFFF01000FFF000FFFFF000000000000
(1693907031.488248) can0 601##45BDD030E06000000000000032023232300000000
(1693907031.488248) can0 601##45BDD030E06000000000000032023232300000000
(1693907031.488249) can0 101##45B05010000000000
(1693907031.488249) can0 101##45B05010000000000
(1693907031.488249) can0 201##4AB4601
(1693907031.488249) can0 201##4AB4601
(1693907031.494197) can0 010##4370200400617B5
(1693907031.494197) can0 010##4370200400617B5
(1693907031.512432) can0 303##44800FF00FFFF01000FFF000FFFFF000000000000
(1693907031.512432) can0 303##44800FF00FFFF01000FFF000FFFFF000000000000
(1693907031.537838) can0 601##45CDD030E06000000000000032023232300000000
(1693907031.537838) can0 601##45CDD030E06000000000000032023232300000000
(1693907031.537839) can0 101##45C05010000000000
(1693907031.537839) can0 101##45C05010000000000
(1693907031.544248) can0 010##438020040069D5C
(1693907031.544248) can0 010##438020040069D5C
(1693907031.546797) can0 202##56B465FB41E290400070019000E000000
(1693907031.546797) can0 202##56B465FB41E290400070019000E000000
(1693907031.562272) can0 303##44900FF00FFFF01000FFF000FFFFF000000000000
(1693907031.562272) can0 303##44900FF00FFFF01000FFF000FFFFF000000000000
(1693907031.587866) can0 601##45DDE030E06000000000000032023232300000000
(1693907031.587866) can0 601##45DDE030E06000000000000032023232300000000
(1693907031.587867) can0 101##45D05010000000000
(1693907031.587867) can0 101##45D05010000000000
(1693907031.594184) can0 010##43902004006253D
(1693907031.594184) can0 010##43902004006253D
(1693907031.612276) can0 303##44A00FF00FFFF01000FFF000FFFFF000000000000
(1693907031.612276) can0 303##44A00FF00FFFF01000FFF000FFFFF000000000000
(1693907031.638284) can0 601##45EDE030E06000000000000032023232300000000
(1693907031.638284) can0 601##45EDE030E06000000000000032023232300000000
(1693907031.638286) can0 101##45E05010000000000
(1693907031.638286) can0 101##45E05010000000000
(1693907031.644141) can0 010##43A02004006FDBF
(1693907031.644141) can0 010##43A02004006FDBF
(1693907031.662436) can0 303##44B00FF00FFFF01000FFF000FFFFF000000000000
(1693907031.662436) can0 303##44B00FF00FFFF01000FFF000FFFFF000000000000
(1693907031.688313) can0 601##45FDE030E06000000000000032023232300000000
(1693907031.688313) can0 601##45FDE030E06000000000000032023232300000000
(1693907031.688314) can0 101##45F05010000000000
(1693907031.688314) can0 101##45F05010000000000
(1693907031.693850) can0 010##43B0200400645DE
(1693907031.693850) can0 010##43B0200400645DE
(1693907031.712268) can0 303##44C00FF00FFFF01000FFF000FFFFF000000000000
(1693907031.712268) can0 303##44C00FF00FFFF01000FFF000FFFFF000000000000
(1693907031.737826) can0 601##460DE030E06000000000000032023232300000000
(1693907031.737826) can0 601##460DE030E06000000000000032023232300000000
(1693907031.737827) can0 101##46005010000000000
(1693907031.737827) can0 101##46005010000000000
(1693907031.737828) can0 201##4AC4601
(1693907031.737828) can0 201##4AC4601
(1693907031.743973) can0 010##43C020040065C9A
(1693907031.743973) can0 010##43C020040065C9A
(1693907031.762457) can0 303##44D00FF00FFFF01000FFF000FFFFF000000000000
(1693907031.762457) can0 303##44D00FF00FFFF01000FFF000FFFFF000000000000
(1693907031.788271) can0 601##461DF030E06000000000000032023232300000000
(1693907031.788271) can0 601##461DF030E06000000000000032023232300000000
(1693907031.788273) can0 101##46105010000000000
(1693907031.788273) can0 101##46105010000000000
(1693907031.793942) can0 010##43D02004006E4FB
(1693907031.793942) can0 010##43D02004006E4FB
(1693907031.812220) can0 303##44E00FF00FFFF01000FFF000FFFFF000000000000
(1693907031.812220) can0 303##44E00FF00FFFF01000FFF000FFFFF000000000000
(1693907031.838044) can0 601##462DF030E06000000000000032023232300000000
(1693907031.838044) can0 601##462DF030E06000000000000032023232300000000
(1693907031.838045) can0 101##46205010000000000
(1693907031.838045) can0 101##46205010000000000
(1693907031.843841) can0 010##43E020040063C79
(1693907031.843841) can0 010##43E020040063C79
(1693907031.862425) can0 303##44F00FF00FFFF01000FFF000FFFFF000000000000
(1693907031.862425) can0 303##44F00FF00FFFF01000FFF000FFFFF000000000000
(1693907031.887810) can0 601##463E0030E06000000000000032023232300000000
(1693907031.887810) can0 601##463E0030E06000000000000032023232300000000
(1693907031.887811) can0 101##46305010000000000
(1693907031.887811) can0 101##46305010000000000
(1693907031.893508) can0 010##43F020040068418
(1693907031.893508) can0 010##43F020040068418
(1693907031.912287) can0 303##45000FF00FFFF01000FFF000FFFFF000000000000
(1693907031.912287) can0 303##45000FF00FFFF01000FFF000FFFFF000000000000
(1693907031.937838) can0 601##464E0030E06000000000000032023232300000000
(1693907031.937838) can0 601##464E0030E06000000000000032023232300000000
(1693907031.937840) can0 101##46405010000000000
(1693907031.937840) can0 101##46405010000000000
(1693907031.943528) can0 010##440020040068A90
(1693907031.943528) can0 010##440020040068A90
(1693907031.962378) can0 303##45100FF00FFFF01000FFF000FFFFF000000000000
(1693907031.962378) can0 303##45100FF00FFFF01000FFF000FFFFF000000000000
(1693907031.987882) can0 601##465E0030E06000000000000032023232300000000
(1693907031.987882) can0 601##465E0030E06000000000000032023232300000000
(1693907031.987883) can0 101##46505010000000000
(1693907031.987883) can0 101##46505010000000000
(1693907031.987884) can0 201##4AD4601
(1693907031.987884) can0 201##4AD4601
(1693907031.997039) can0 010##4410200400632F1
(1693907031.997039) can0 010##4410200400632F1
(1693907032.012284) can0 303##45200FF00FFFF01000FFF000FFFFF000000000000
(1693907032.012284) can0 303##45200FF00FFFF01000FFF000FFFFF000000000000
(1693907032.038061) can0 601##466E1030E06000000000000032023232300000000
(1693907032.038061) can0 601##466E1030E06000000000000032023232300000000
(1693907032.038062) can0 101##46605010000000000
(1693907032.038062) can0 101##46605010000000000
(1693907032.044228) can0 010##44202004006EA73
(1693907032.044228) can0 010##44202004006EA73
(1693907032.062446) can0 303##45300FF00FFFF01000FFF000FFFFF000000000000
(1693907032.062446) can0 303##45300FF00FFFF01000FFF000FFFFF000000000000
(1693907032.087876) can0 601##467E1030E06000000000000032023232300000000
(1693907032.087876) can0 601##467E1030E06000000000000032023232300000000
(1693907032.087877) can0 101##46705010000000000
(1693907032.087877) can0 101##46705010000000000
(1693907032.094195) can0 010##443020040065212
(1693907032.094195) can0 010##443020040065212
(1693907032.112275) can0 303##45400FF00FFFF01000FFF000FFFFF000000000000
(1693907032.112275) can0 303##45400FF00FFFF01000FFF000FFFFF000000000000
(1693907032.138359) can0 601##468E1030E06000000000000032023232300000000
(1693907032.138359) can0 601##468E1030E06000000000000032023232300000000
(1693907032.138360) can0 101##46805010000000000
(1693907032.138360) can0 101##46805010000000000
(1693907032.143753) can0 010##444020040064B56
(1693907032.143753) can0 010##444020040064B56
(1693907032.162434) can0 303##45500FF00FFFF01000FFF000FFFFF000000000000
(1693907032.162434) can0 303##45500FF00FFFF01000FFF000FFFFF000000000000
(1693907032.187896) can0 601##469E2030E06000000000000032023232300000000
(1693907032.187896) can0 601##469E2030E06000000000000032023232300000000
(1693907032.187897) can0 101##46905010000000000
(1693907032.187897) can0 101##46905010000000000
(1693907032.193659) can0 010##44502004006F337
(1693907032.193659) can0 010##44502004006F337
(1693907032.212294) can0 303##45600FF00FFFF01000FFF000FFFFF000000000000
(1693907032.212294) can0 303##45600FF00FFFF01000FFF000FFFFF000000000000
(1693907032.238040) can0 601##46AE2030E06000000000000032023232300000000
(1693907032.238040) can0 601##46AE2030E06000000000000032023232300000000
(1693907032.238041) can0 101##46A05010000000000
(1693907032.238041) can0 101##46A05010000000000
(1693907032.238042) can0 201##4AE4601
(1693907032.238042) can0 201##4AE4601
(1693907032.245364) can0 010##446020040062BB5
(1693907032.245364) can0 010##446020040062BB5
(1693907032.262427) can0 303##45700FF00FFFF01000FFF000FFFFF000000000000
(1693907032.262427) can0 303##45700FF00FFFF01000FFF000FFFFF000000000000
(1693907032.287876) can0 601##46BE2030E06000000000000032023232300000000
(1693907032.287876) can0 601##46BE2030E06000000000000032023232300000000
(1693907032.287877) can0 101##46B05010000000000
(1693907032.287877) can0 101##46B05010000000000
(1693907032.293798) can0 010##4470200400693D4
(1693907032.293798) can0 010##4470200400693D4
(1693907032.312264) can0 303##45800FF00FFFF01000FFF000FFFFF000000000000
(1693907032.312264) can0 303##45800FF00FFFF01000FFF000FFFFF000000000000
(1693907032.337931) can0 601##46CE3030E06000000000000032023232300000000
(1693907032.337931) can0 601##46CE3030E06000000000000032023232300000000
(1693907032.337932) can0 101##46C05010000000000
(1693907032.337932) can0 101##46C05010000000000
(1693907032.344166) can0 010##44802004006193D
(1693907032.344166) can0 010##44802004006193D
(1693907032.362445) can0 303##45900FF00FFFF01000FFF000FFFFF000000000000
(1693907032.362445) can0 303##45900FF00FFFF01000FFF000FFFFF000000000000
(1693907032.387902) can0 601##46DE3030E06000000000000032023232300000000
(1693907032.387902) can0 601##46DE3030E06000000000000032023232300000000
(1693907032.387903) can0 101##46D05010000000000
(1693907032.387903) can0 101##46D05010000000000
(1693907032.394159) can0 010##44902004006A15C
(1693907032.394159) can0 010##44902004006A15C
(1693907032.412289) can0 303##45A00FF00FFFF01000FFF000FFFFF000000000000
(1693907032.412289) can0 303##45A00FF00FFFF01000FFF000FFFFF000000000000
(1693907032.438399) can0 601##46EE4030E06000000000000032023232300000000
(1693907032.438399) can0 601##46EE4030E06000000000000032023232300000000
(1693907032.438400) can0 101##46E05010000000000
(1693907032.438400) can0 101##46E05010000000000
(1693907032.444301) can0 010##44A0200400679DE
(1693907032.444301) can0 010##44A0200400679DE
(1693907032.462287) can0 303##45B00FF00FFFF01000FFF000FFFFF000000000000
(1693907032.462287) can0 303##45B00FF00FFFF01000FFF000FFFFF000000000000
(1693907032.487905) can0 601##46FE4030E06000000000000032023232300000000
(1693907032.487905) can0 601##46FE4030E06000000000000032023232300000000
(1693907032.487906) can0 101##46F05010000000000
(1693907032.487906) can0 101##46F05010000000000
(1693907032.487906) can0 201##4AF4601
(1693907032.487906) can0 201##4AF4601
(1693907032.493785) can0 010##44B02004006C1BF
(1693907032.493785) can0 010##44B02004006C1BF
(1693907032.512269) can0 303##45C00FF00FFFF01000FFF000FFFFF000000000000
(1693907032.512269) can0 303##45C00FF00FFFF01000FFF000FFFFF000000000000
(1693907032.537924) can0 601##470E5030E06000000000000032023232300000000
(1693907032.537924) can0 601##470E5030E06000000000000032023232300000000
(1693907032.537925) can0 101##47005010000000000
(1693907032.537925) can0 101##47005010000000000
(1693907032.544192) can0 010##44C02004006D8FB
(1693907032.544192) can0 010##44C02004006D8FB
(1693907032.547508) can0 202##56C465FB43143CE000D0019000E000000
(1693907032.547508) can0 202##56C465FB43143CE000D0019000E000000
(1693907032.562404) can0 303##45D00FF00FFFF01000FFF000FFFFF000000000000
(1693907032.562404) can0 303##45D00FF00FFFF01000FFF000FFFFF000000000000
(1693907032.587914) can0 601##471E5030E06000000000000032023232300000000
(1693907032.587914) can0 601##471E5030E06000000000000032023232300000000
(1693907032.587915) can0 101##47105010000000000
(1693907032.587915) can0 101##47105010000000000
(1693907032.594156) can0 010##44D02004006609A
(1693907032.594156) can0 010##44D02004006609A
(1693907032.612280) can0 303##45E00FF00FFFF01000FFF000FFFFF000000000000
(1693907032.612280) can0 303##45E00FF00FFFF01000FFF000FFFFF000000000000
(1693907032.637945) can0 601##472E6030E06000000000000032023232300000000
(1693907032.637945) can0 601##472E6030E06000000000000032023232300000000
(1693907032.637946) can0 101##47205010000000000
(1693907032.637946) can0 101##47205010000000000
(1693907032.644120) can0 010##44E02004006B818
(1693907032.644120) can0 010##44E02004006B818
(1693907032.662295) can0 303##45F00FF00FFFF01000FFF000FFFFF000000000000
(1693907032.662295) can0 303##45F00FF00FFFF01000FFF000FFFFF000000000000
(1693907032.687935) can0 601##473E6030E06000000000000032023232300000000
(1693907032.687935) can0 601##473E6030E06000000000000032023232300000000
(1693907032.687936) can0 101##47305010000000000
(1693907032.687936) can0 101##47305010000000000
(1693907032.694145) can0 010##44F020040060079
(1693907032.694145) can0 010##44F020040060079
(1693907032.712248) can0 303##46000FF00FFFF01000FFF000FFFFF000000000000
(1693907032.712248) can0 303##46000FF00FFFF01000FFF000FFFFF000000000000
(1693907032.738405) can0 601##474E7030E06000000000000032023232300000000
(1693907032.738405) can0 601##474E7030E06000000000000032023232300000000
(1693907032.738406) can0 101##47405010000000000
(1693907032.738406) can0 101##47405010000000000
(1693907032.738406) can0 201##4B04601
(1693907032.738406) can0 201##4B04601
(1693907032.744123) can0 010##45002004006BDEB
(1693907032.744123) can0 010##45002004006BDEB
(1693907032.762268) can0 303##46100FF00FFFF01000FFF000FFFFF000000000000
(1693907032.762268) can0 303##46100FF00FFFF01000FFF000FFFFF000000000000
(1693907032.787912) can0 601##475E7030E06000000000000032023232300000000
(1693907032.787912) can0 601##475E7030E06000000000000032023232300000000
(1693907032.787913) can0 101##47505010000000000
(1693907032.787913) can0 101##47505010000000000
(1693907032.793824) can0 010##45102004006058A
(1693907032.793824) can0 010##45102004006058A
(1693907032.812283) can0 303##46200FF00FFFF01000FFF000FFFFF000000000000
(1693907032.812283) can0 303##46200FF00FFFF01000FFF000FFFFF000000000000
(1693907032.838061) can0 601##476E8030E06000000000000032023232300000000
(1693907032.838061) can0 601##476E8030E06000000000000032023232300000000
(1693907032.838062) can0 101##47605010000000000
(1693907032.838062) can0 101##47605010000000000
(1693907032.844189) can0 010##45202004006DD08
(1693907032.844189) can0 010##45202004006DD08
(1693907032.862293) can0 303##46300FF00FFFF01000FFF000FFFFF000000000000
(1693907032.862293) can0 303##46300FF00FFFF01000FFF000FFFFF000000000000
(1693907032.887920) can0 601##477E8030E06000000000000032023232300000000
(1693907032.887920) can0 601##477E8030E06000000000000032023232300000000
(1693907032.887921) can0 101##47705010000000000
(1693907032.887921) can0 101##47705010000000000
(1693907032.893709) can0 010##453020040066569
(1693907032.893709) can0 010##453020040066569
(1693907032.912273) can0 303##46400FF00FFFF01000FFF000FFFFF000000000000
(1693907032.912273) can0 303##46400FF00FFFF01000FFF000FFFFF000000000000
(1693907032.938403) can0 601##478E9030E06000000000000032023232300000000
(1693907032.938403) can0 601##478E9030E06000000000000032023232300000000
(1693907032.938405) can0 101##47805010000000000
(1693907032.938405) can0 101##47805010000000000
(1693907032.943701) can0 010##454020040067C2D
(1693907032.943701) can0 010##454020040067C2D
(1693907032.962255) can0 303##46500FF00FFFF01000FFF000FFFFF000000000000
(1693907032.962255) can0 303##46500FF00FFFF01000FFF000FFFFF000000000000
(1693907032.987942) can0 601##479E9030E06000000000000032023232300000000
(1693907032.987942) can0 601##479E9030E06000000000000032023232300000000
(1693907032.987943) can0 101##47905010000000000
(1693907032.987943) can0 101##47905010000000000
(1693907032.987944) can0 201##4B14601
(1693907032.987944) can0 201##4B14601
(1693907032.994059) can0 010##45502004006C44C
(1693907032.994059) can0 010##45502004006C44C
(1693907033.012296) can0 303##46600FF00FFFF01000FFF000FFFFF000000000000
(1693907033.012296) can0 303##46600FF00FFFF01000FFF000FFFFF000000000000
(1693907033.038309) can0 601##47AEA030E06000000000000032023232300000000
(1693907033.038309) can0 601##47AEA030E06000000000000032023232300000000
(1693907033.038311) can0 101##47A05010000000000
(1693907033.038311) can0 101##47A05010000000000
(1693907033.044124) can0 010##456020040061CCE
(1693907033.044124) can0 010##456020040061CCE
(1693907033.062305) can0 303##46700FF00FFFF01000FFF000FFFFF000000000000
(1693907033.062305) can0 303##46700FF00FFFF01000FFF000FFFFF000000000000
(1693907033.087960) can0 601##47BEA030E06000000000000032023232300000000
(1693907033.087960) can0 601##47BEA030E06000000000000032023232300000000
(1693907033.087962) can0 101##47B05010000000000
(1693907033.087962) can0 101##47B05010000000000
(1693907033.094058) can0 010##45702004006A4AF
(1693907033.094058) can0 010##45702004006A4AF
(1693907033.112291) can0 303##46800FF00FFFF01000FFF000FFFFF000000000000
(1693907033.112291) can0 303##46800FF00FFFF01000FFF000FFFFF000000000000
(1693907033.138435) can0 601##47CEB030E06000000000000032023232300000000
(1693907033.138435) can0 601##47CEB030E06000000000000032023232300000000
(1693907033.138436) can0 101##47C05010000000000
(1693907033.138436) can0 101##47C05010000000000
(1693907033.144178) can0 010##458020040062E46
(1693907033.144178) can0 010##458020040062E46
(1693907033.162412) can0 303##46900FF00FFFF01000FFF000FFFFF000000000000
(1693907033.162412) can0 303##46900FF00FFFF01000FFF000FFFFF000000000000
(1693907033.187943) can0 601##47DEB030E06000000000000032023232300000000
(1693907033.187943) can0 601##47DEB030E06000000000000032023232300000000
(1693907033.187945) can0 101##47D05010000000000
(1693907033.187945) can0 101##47D05010000000000
(1693907033.194272) can0 010##459020040069627
(1693907033.194272) can0 010##459020040069627
(1693907033.212295) can0 303##46A00FF00FFFF01000FFF000FFFFF000000000000
(1693907033.212295) can0 303##46A00FF00FFFF01000FFF000FFFFF000000000000
(1693907033.238412) can0 601##47EEC030E06000000000000032023232300000000
(1693907033.238412) can0 601##47EEC030E06000000000000032023232300000000
(1693907033.238413) can0 101##47E05010000000000
(1693907033.238413) can0 101##47E05010000000000
(1693907033.238414) can0 201##4B24601
(1693907033.238414) can0 201##4B24601
(1693907033.244102) can0 010##45A020040064EA5
(1693907033.244102) can0 010##45A020040064EA5
(1693907033.262404) can0 303##46B00FF00FFFF01000FFF000FFFFF000000000000
(1693907033.262404) can0 303##46B00FF00FFFF01000FFF000FFFFF000000000000
(1693907033.287953) can0 601##47FEC030E06000000000000032023232300000000
(1693907033.287953) can0 601##47FEC030E06000000000000032023232300000000
(1693907033.287954) can0 101##47F05010000000000
(1693907033.287954) can0 101##47F05010000000000
(1693907033.294024) can0 010##45B02004006F6C4
(1693907033.294024) can0 010##45B02004006F6C4
(1693907033.312245) can0 303##46C00FF00FFFF01000FFF000FFFFF000000000000
(1693907033.312245) can0 303##46C00FF00FFFF01000FFF000FFFFF000000000000
(1693907033.338028) can0 601##480ED030E06000000000000032023232300000000
(1693907033.338028) can0 601##480ED030E06000000000000032023232300000000
(1693907033.338029) can0 101##48005010000000000
(1693907033.338029) can0 101##48005010000000000
(1693907033.344411) can0 010##45C02004006EF80
(1693907033.344411) can0 010##45C02004006EF80
(1693907033.362385) can0 303##46D00FF00FFFF01000FFF000FFFFF000000000000
(1693907033.362385) can0 303##46D00FF00FFFF01000FFF000FFFFF000000000000
(1693907033.387938) can0 601##481ED030E06000000000000032023232300000000
(1693907033.387938) can0 601##481ED030E06000000000000032023232300000000
(1693907033.387939) can0 101##48105010000000000
(1693907033.387939) can0 101##48105010000000000
(1693907033.393697) can0 010##45D0200400657E1
(1693907033.393697) can0 010##45D0200400657E1
(1693907033.412258) can0 303##46E00FF00FFFF01000FFF000FFFFF000000000000
(1693907033.412258) can0 303##46E00FF00FFFF01000FFF000FFFFF000000000000
(1693907033.438407) can0 601##482EE030E06000000000000032023232300000000
(1693907033.438407) can0 601##482EE030E06000000000000032023232300000000
(1693907033.438408) can0 101##48205010000000000
(1693907033.438408) can0 101##48205010000000000
(1693907033.443940) can0 010##45E020040068F63
(1693907033.443940) can0 010##45E020040068F63
(1693907033.462428) can0 303##46F00FF00FFFF01000FFF000FFFFF000000000000
(1693907033.462428) can0 303##46F00FF00FFFF01000FFF000FFFFF000000000000
(1693907033.487874) can0 601##483EF030E06000000000000032023232300000000
(1693907033.487874) can0 601##483EF030E06000000000000032023232300000000
(1693907033.487886) can0 101##48305010000000000
(1693907033.487886) can0 101##48305010000000000
(1693907033.487886) can0 201##4B34601
(1693907033.487886) can0 201##4B34601
(1693907033.493642) can0 010##45F020040063702
(1693907033.493642) can0 010##45F020040063702
(1693907033.512278) can0 303##47000FF00FFFF01000FFF000FFFFF000000000000
(1693907033.512278) can0 303##47000FF00FFFF01000FFF000FFFFF000000000000
(1693907033.538370) can0 601##484EF030E06000000000000032023232300000000
(1693907033.538370) can0 601##484EF030E06000000000000032023232300000000
(1693907033.538371) can0 101##48405010000000000
(1693907033.538371) can0 101##48405010000000000
(1693907033.544096) can0 010##46002004006E466
(1693907033.544096) can0 010##46002004006E466
(1693907033.548418) can0 202##56D465FB4435CCA00170019000E000000
(1693907033.548418) can0 202##56D465FB4435CCA00170019000E000000
(1693907033.562362) can0 303##47100FF00FFFF01000FFF000FFFFF000000000000
(1693907033.562362) can0 303##47100FF00FFFF01000FFF000FFFFF000000000000
(1693907033.588415) can0 601##485F0030E06000000000000032023232300000000
(1693907033.588415) can0 601##485F0030E06000000000000032023232300000000
(1693907033.588417) can0 101##48505010000000000
(1693907033.588417) can0 101##48505010000000000
(1693907033.593638) can0 010##461020040065C07
(1693907033.593638) can0 010##461020040065C07
(1693907033.612284) can0 303##47200FF00FFFF01000FFF000FFFFF000000000000
(1693907033.612284) can0 303##47200FF00FFFF01000FFF000FFFFF000000000000
(1693907033.638414) can0 601##486F0030E06000000000000032023232300000000
(1693907033.638414) can0 601##486F0030E06000000000000032023232300000000
(1693907033.638416) can0 101##48605010000000000
(1693907033.638416) can0 101##48605010000000000
(1693907033.644075) can0 010##462020040068485
(1693907033.644075) can0 010##462020040068485
(1693907033.662389) can0 303##47300FF00FFFF01000FFF000FFFFF000000000000
(1693907033.662389) can0 303##47300FF00FFFF01000FFF000FFFFF000000000000
(1693907033.687966) can0 601##487F1030E06000000000000032023232300000000
(1693907033.687966) can0 601##487F1030E06000000000000032023232300000000
(1693907033.687967) can0 101##48705010000000000
(1693907033.687967) can0 101##48705010000000000
(1693907033.694068) can0 010##463020040063CE4
(1693907033.694068) can0 010##463020040063CE4
(1693907033.712305) can0 303##47400FF00FFFF01000FFF000FFFFF000000000000
(1693907033.712305) can0 303##47400FF00FFFF01000FFF000FFFFF000000000000
(1693907033.738396) can0 601##488F1030E06000000000000032023232300000000
(1693907033.738396) can0 601##488F1030E06000000000000032023232300000000
(1693907033.738398) can0 101##48805010000000000
(1693907033.738398) can0 101##48805010000000000
(1693907033.738398) can0 201##4B44601
(1693907033.738398) can0 201##4B44601
(1693907033.743492) can0 010##4640200400625A0
(1693907033.743492) can0 010##4640200400625A0
(1693907033.762436) can0 303##47500FF00FFFF01000FFF000FFFFF000000000000
(1693907033.762436) can0 303##47500FF00FFFF01000FFF000FFFFF000000000000
(1693907033.787990) can0 601##489F1030E06000000000000032023232300000000
(1693907033.787990) can0 601##489F1030E06000000000000032023232300000000
(1693907033.787991) can0 101##48905010000000000
(1693907033.787991) can0 101##48905010000000000
(1693907033.793756) can0 010##465020040069DC1
(1693907033.793756) can0 010##465020040069DC1
(1693907033.812292) can0 303##47600FF00FFFF01000FFF000FFFFF000000000000
(1693907033.812292) can0 303##47600FF00FFFF01000FFF000FFFFF000000000000
(1693907033.838394) can0 601##48AF1030E06000000000000032023232300000000
(1693907033.838394) can0 601##48AF1030E06000000000000032023232300000000
(1693907033.838396) can0 101##48A05010000000000
(1693907033.838396) can0 101##48A05010000000000
(1693907033.843993) can0 010##466020040064543
(1693907033.843993) can0 010##466020040064543
(1693907033.862398) can0 303##47700FF00FFFF01000FFF000FFFFF000000000000
(1693907033.862398) can0 303##47700FF00FFFF01000FFF000FFFFF000000000000
(1693907033.888004) can0 601##48BF1030E06000000000000032023232300000000
(1693907033.888004) can0 601##48BF1030E06000000000000032023232300000000
(1693907033.888005) can0 101##48B05010000000000
(1693907033.888005) can0 101##48B05010000000000
(1693907033.893611) can0 010##46702004006FD22
(1693907033.893611) can0 010##46702004006FD22
(1693907033.912322) can0 303##47800FF00FFFF01000FFF000FFFFF000000000000
(1693907033.912322) can0 303##47800FF00FFFF01000FFF000FFFFF000000000000
(1693907033.938428) can0 601##48CF1030E06000000000000032023232300000000
(1693907033.938428) can0 601##48CF1030E06000000000000032023232300000000
(1693907033.938429) can0 101##48C05010000000000
(1693907033.938429) can0 101##48C05010000000000
(1693907033.943594) can0 010##4680200400677CB
(1693907033.943594) can0 010##4680200400677CB
(1693907033.962345) can0 303##47900FF00FFFF01000FFF000FFFFF000000000000
(1693907033.962345) can0 303##47900FF00FFFF01000FFF000FFFFF000000000000
(1693907033.988011) can0 601##48DF1030E06000000000000032023232300000000
(1693907033.988011) can0 601##48DF1030E06000000000000032023232300000000
(1693907033.988013) can0 101##48D05010000000000
(1693907033.988013) can0 101##48D05010000000000
(1693907033.988014) can0 201##4B54601
(1693907033.988014) can0 201##4B54601
(1693907033.994090) can0 010##46902004006CFAA
(1693907033.994090) can0 010##46902004006CFAA
(1693907034.012283) can0 303##47A00FF00FFFF01000FFF000FFFFF000000000000
(1693907034.012283) can0 303##47A00FF00FFFF01000FFF000FFFFF000000000000
(1693907034.038412) can0 601##48EF1030E06000000000000032023232300000000
(1693907034.038412) can0 601##48EF1030E06000000000000032023232300000000
(1693907034.038413) can0 101##48E05010000000000
(1693907034.038413) can0 101##48E05010000000000
(1693907034.044011) can0 010##46A020040061728
(1693907034.044011) can0 010##46A020040061728
(1693907034.062454) can0 303##47B00FF00FFFF01000FFF000FFFFF000000000000
(1693907034.062454) can0 303##47B00FF00FFFF01000FFF000FFFFF000000000000
(1693907034.088012) can0 601##48FF1030E06000000000000032023232300000000
(1693907034.088012) can0 601##48FF1030E06000000000000032023232300000000
(1693907034.088013) can0 101##48F05010000000000
(1693907034.088013) can0 101##48F05010000000000
(1693907034.093576) can0 010##46B02004006AF49
(1693907034.093576) can0 010##46B02004006AF49
(1693907034.112295) can0 303##47C00FF00FFFF01000FFF000FFFFF000000000000
(1693907034.112295) can0 303##47C00FF00FFFF01000FFF000FFFFF000000000000
(1693907034.138029) can0 601##490F1030E06000000000000032023232300000000
(1693907034.138029) can0 601##490F1030E06000000000000032023232300000000
(1693907034.138030) can0 101##49005010000000000
(1693907034.138030) can0 101##49005010000000000
(1693907034.143586) can0 010##46C02004006B60D
(1693907034.143586) can0 010##46C02004006B60D
(1693907034.162297) can0 303##47D00FF00FFFF01000FFF000FFFFF000000000000
(1693907034.162297) can0 303##47D00FF00FFFF01000FFF000FFFFF000000000000
(1693907034.188302) can0 601##491F1030E06000000000000032023232300000000
(1693907034.188302) can0 601##491F1030E06000000000000032023232300000000
(1693907034.188303) can0 101##49105010000000000
(1693907034.188303) can0 101##49105010000000000
(1693907034.194037) can0 010##46D020040060E6C
(1693907034.194037) can0 010##46D020040060E6C
(1693907034.212233) can0 303##47E00FF00FFFF01000FFF000FFFFF000000000000
(1693907034.212233) can0 303##47E00FF00FFFF01000FFF000FFFFF000000000000
(1693907034.238024) can0 601##492F1030E06000000000000032023232300000000
(1693907034.238024) can0 601##492F1030E06000000000000032023232300000000
(1693907034.238026) can0 101##49205010000000000
(1693907034.238026) can0 101##49205010000000000
(1693907034.238026) can0 201##4B64601
(1693907034.238026) can0 201##4B64601
(1693907034.243631) can0 010##46E02004006D6EE
(1693907034.243631) can0 010##46E02004006D6EE
(1693907034.262288) can0 303##47F00FF00FFFF01000FFF000FFFFF000000000000
(1693907034.262288) can0 303##47F00FF00FFFF01000FFF000FFFFF000000000000
(1693907034.288053) can0 601##493F1030E06000000000000032023232300000000
(1693907034.288053) can0 601##493F1030E06000000000000032023232300000000
(1693907034.288054) can0 101##49305010000000000
(1693907034.288054) can0 101##49305010000000000
(1693907034.293698) can0 010##46F020040066E8F
(1693907034.293698) can0 010##46F020040066E8F
(1693907034.312439) can0 303##48000FF00FFFF01000FFF000FFFFF000000000000
(1693907034.312439) can0 303##48000FF00FFFF01000FFF000FFFFF000000000000
(1693907034.338038) can0 601##494F1030E06000000000000032023232300000000
(1693907034.338038) can0 601##494F1030E06000000000000032023232300000000
(1693907034.338039) can0 101##49405010000000000
(1693907034.338039) can0 101##49405010000000000
(1693907034.344613) can0 010##47002004006D31D
(1693907034.344613) can0 010##47002004006D31D
(1693907034.362323) can0 303##48100FF00FFFF01000FFF000FFFFF000000000000
(1693907034.362323) can0 303##48100FF00FFFF01000FFF000FFFFF000000000000
(1693907034.388046) can0 601##495F1030E06000000000000032023232300000000
(1693907034.388046) can0 601##495F1030E06000000000000032023232300000000
(1693907034.388047) can0 101##49505010000000000
(1693907034.388047) can0 101##49505010000000000
(1693907034.393508) can0 010##471020040066B7C
(1693907034.393508) can0 010##471020040066B7C
(1693907034.412420) can0 303##48200FF00FFFF01000FFF000FFFFF000000000000
(1693907034.412420) can0 303##48200FF00FFFF01000FFF000FFFFF000000000000
(1693907034.438408) can0 601##496F1030E06000000000000032023232300000000
(1693907034.438408) can0 601##496F1030E06000000000000032023232300000000
(1693907034.438409) can0 101##49605010000000000
(1693907034.438409) can0 101##49605010000000000
(1693907034.444001) can0 010##47202004006B3FE
(1693907034.444001) can0 010##47202004006B3FE
(1693907034.462304) can0 303##48300FF00FFFF01000FFF000FFFFF000000000000
(1693907034.462304) can0 303##48300FF00FFFF01000FFF000FFFFF000000000000
(1693907034.488421) can0 601##497F1030E06000000000000032023232300000000
(1693907034.488421) can0 601##497F1030E06000000000000032023232300000000
(1693907034.488422) can0 101##49705010000000000
(1693907034.488422) can0 101##49705010000000000
(1693907034.488422) can0 201##4B74601
(1693907034.488422) can0 201##4B74601
(1693907034.494007) can0 010##473020040060B9F
(1693907034.494007) can0 010##473020040060B9F
(1693907034.512416) can0 303##48400FF00FFFF01000FFF000FFFFF000000000000
(1693907034.512416) can0 303##48400FF00FFFF01000FFF000FFFFF000000000000
(1693907034.538408) can0 601##498F1030E06000000000000032023232300000000
(1693907034.538408) can0 601##498F1030E06000000000000032023232300000000
(1693907034.538409) can0 101##49805010000000000
(1693907034.538409) can0 101##49805010000000000
(1693907034.543671) can0 010##4740200400612DB
(1693907034.543671) can0 010##4740200400612DB
(1693907034.548556) can0 202##56E465FB4465FEE000B0019000E000001
(1693907034.548556) can0 202##56E465FB4465FEE000B0019000E000001
(1693907034.562306) can0 303##48500FF00FFFF01000FFF000FFFFF000000000000
(1693907034.562306) can0 303##48500FF00FFFF01000FFF000FFFFF000000000000
(1693907034.588159) can0 601##499F1030E06000000000000032023232300000000
(1693907034.588159) can0 601##499F1030E06000000000000032023232300000000
(1693907034.588160) can0 101##49905010000000000
(1693907034.588160) can0 101##49905010000000000
(1693907034.593595) can0 010##47502004006AABA
(1693907034.593595) can0 010##47502004006AABA
(1693907034.612402) can0 303##48600FF00FFFF01000FFF000FFFFF000000000000
(1693907034.612402) can0 303##48600FF00FFFF01000FFF000FFFFF000000000000
(1693907034.638356) can0 601##49AF1030E06000000000000032023232300000000
(1693907034.638356) can0 601##49AF1030E06000000000000032023232300000000
(1693907034.638357) can0 101##49A05010000000000
(1693907034.638357) can0 101##49A05010000000000
(1693907034.643749) can0 010##476020040067238
(1693907034.643749) can0 010##476020040067238
(1693907034.662403) can0 303##48700FF00FFFF01000FFF000FFFFF000000000000
(1693907034.662403) can0 303##48700FF00FFFF01000FFF000FFFFF000000000000
(1693907034.688151) can0 601##49BF1030E06000000000000032023232300000000
(1693907034.688151) can0 601##49BF1030E06000000000000032023232300000000
(1693907034.688152) can0 101##49B05010000000000
(1693907034.688152) can0 101##49B05010000000000
(1693907034.693473) can0 010##47702004006CA59
(1693907034.693473) can0 010##47702004006CA59
(1693907034.712267) can0 303##48800FF00FFFF01000FFF000FFFFF000000000000
(1693907034.712267) can0 303##48800FF00FFFF01000FFF000FFFFF000000000000
(1693907034.738154) can0 601##49CF1030E06000000000000032023232300000000
(1693907034.738154) can0 601##49CF1030E06000000000000032023232300000000
(1693907034.738155) can0 101##49C05010000000000
(1693907034.738155) can0 101##49C05010000000000
(1693907034.738156) can0 201##4B84601
(1693907034.738156) can0 201##4B84601
(1693907034.743611) can0 010##4780200400640B0
(1693907034.743611) can0 010##4780200400640B0
(1693907034.762382) can0 303##48900FF00FFFF01000FFF000FFFFF000000000000
(1693907034.762382) can0 303##48900FF00FFFF01000FFF000FFFFF000000000000
(1693907034.788071) can0 601##49DF1030E06000000000000032023232300000000
(1693907034.788071) can0 601##49DF1030E06000000000000032023232300000000
(1693907034.788072) can0 101##49D05010000000000
(1693907034.788072) can0 101##49D05010000000000
(1693907034.793669) can0 010##47902004006F8D1
(1693907034.793669) can0 010##47902004006F8D1
(1693907034.812305) can0 303##48A00FF00FFFF01000FFF000FFFFF000000000000
(1693907034.812305) can0 303##48A00FF00FFFF01000FFF000FFFFF000000000000
(1693907034.838128) can0 601##49EF1030E06000000000000032023232300000000
(1693907034.838128) can0 601##49EF1030E06000000000000032023232300000000
(1693907034.838129) can0 101##49E05010000000000
(1693907034.838129) can0 101##49E05010000000000
(1693907034.843966) can0 010##47A020040062053
(1693907034.843966) can0 010##47A020040062053
(1693907034.862434) can0 303##48B00FF00FFFF01000FFF000FFFFF000000000000
(1693907034.862434) can0 303##48B00FF00FFFF01000FFF000FFFFF000000000000
(1693907034.888057) can0 601##49FF1030E06000000000000032023232300000000
(1693907034.888057) can0 601##49FF1030E06000000000000032023232300000000
(1693907034.888058) can0 101##49F05010000000000
(1693907034.888058) can0 101##49F05010000000000
(1693907034.893960) can0 010##47B020040069832
(1693907034.893960) can0 010##47B020040069832
(1693907034.912311) can0 303##48C00FF00FFFF01000FFF000FFFFF000000000000
(1693907034.912311) can0 303##48C00FF00FFFF01000FFF000FFFFF000000000000
(1693907034.938119) can0 601##4A0F1030E06000000000000032023232300000000
(1693907034.938119) can0 601##4A0F1030E06000000000000032023232300000000
(1693907034.938120) can0 101##4A005010000000000
(1693907034.938120) can0 101##4A005010000000000
(1693907034.943522) can0 010##47C020040068176
(1693907034.943522) can0 010##47C020040068176
(1693907034.962418) can0 303##48D00FF00FFFF01000FFF000FFFFF000000000000
(1693907034.962418) can0 303##48D00FF00FFFF01000FFF000FFFFF000000000000
(1693907034.988065) can0 601##4A1F1030E06000000000000032023232300000000
(1693907034.988065) can0 601##4A1F1030E06000000000000032023232300000000
(1693907034.988066) can0 101##4A105010000000000
(1693907034.988066) can0 101##4A105010000000000
(1693907034.988066) can0 201##4B94601
(1693907034.988066) can0 201##4B94601
(1693907034.993593) can0 010##47D020040063917
(1693907034.993593) can0 010##47D020040063917
(1693907035.012283) can0 303##48E00FF00FFFF01000FFF000FFFFF000000000000
(1693907035.012283) can0 303##48E00FF00FFFF01000FFF000FFFFF000000000000
(1693907035.038401) can0 601##4A2F1030E06000000000000032023232300000000
(1693907035.038401) can0 601##4A2F1030E06000000000000032023232300000000
(1693907035.038402) can0 101##4A205010000000000
(1693907035.038402) can0 101##4A205010000000000
(1693907035.043557) can0 010##47E02004006E195
(1693907035.043557) can0 010##47E02004006E195
(1693907035.062306) can0 303##48F00FF00FFFF01000FFF000FFFFF000000000000
(1693907035.062306) can0 303##48F00FF00FFFF01000FFF000FFFFF000000000000
(1693907035.088071) can0 601##4A3F1030E06000000000000032023232300000000
(1693907035.088071) can0 601##4A3F1030E06000000000000032023232300000000
(1693907035.088072) can0 101##4A305010000000000
(1693907035.088072) can0 101##4A305010000000000
(1693907035.093702) can0 010##47F0200400659F4
(1693907035.093702) can0 010##47F0200400659F4
(1693907035.112287) can0 303##49000FF00FFFF01000FFF000FFFFF000000000000
(1693907035.112287) can0 303##49000FF00FFFF01000FFF000FFFFF000000000000
(1693907035.138407) can0 601##4A4F1030E06000000000000032023232300000000
(1693907035.138407) can0 601##4A4F1030E06000000000000032023232300000000
(1693907035.138408) can0 101##4A405010000000000
(1693907035.138408) can0 101##4A405010000000000
(1693907035.144148) can0 010##48002004006FC85
(1693907035.144148) can0 010##48002004006FC85
(1693907035.162344) can0 303##49100FF00FFFF01000FFF000FFFFF000000000000
(1693907035.162344) can0 303##49100FF00FFFF01000FFF000FFFFF000000000000
(1693907035.188086) can0 601##4A5F1030E06000000000000032023232300000000
(1693907035.188086) can0 601##4A5F1030E06000000000000032023232300000000
(1693907035.188087) can0 101##4A505010000000000
(1693907035.188087) can0 101##4A505010000000000
(1693907035.193488) can0 010##4810200400644E4
(1693907035.193488) can0 010##4810200400644E4
(1693907035.212294) can0 303##49200FF00FFFF01000FFF000FFFFF000000000000
(1693907035.212294) can0 303##49200FF00FFFF01000FFF000FFFFF000000000000
(1693907035.238413) can0 601##4A6F1030E06000000000000032023232300000000
(1693907035.238413) can0 601##4A6F1030E06000000000000032023232300000000
(1693907035.238414) can0 101##4A605010000000000
(1693907035.238414) can0 101##4A605010000000000
(1693907035.238415) can0 201##4BA4601
(1693907035.238415) can0 201##4BA4601
(1693907035.243967) can0 010##482020040069C66
(1693907035.243967) can0 010##482020040069C66
(1693907035.262308) can0 303##49300FF00FFFF01000FFF000FFFFF000000000000
(1693907035.262308) can0 303##49300FF00FFFF01000FFF000FFFFF000000000000
(1693907035.288081) can0 601##4A7F1030E06000000000000032023232300000000
(1693907035.288081) can0 601##4A7F1030E06000000000000032023232300000000
(1693907035.288082) can0 101##4A705010000000000
(1693907035.288082) can0 101##4A705010000000000
(1693907035.293494) can0 010##483020040062407
(1693907035.293494) can0 010##483020040062407
(1693907035.312289) can0 303##49400FF00FFFF01000FFF000FFFFF000000000000
(1693907035.312289) can0 303##49400FF00FFFF01000FFF000FFFFF000000000000
(1693907035.338408) can0 601##4A8F1030E06000000000000032023232300000000
(1693907035.338408) can0 601##4A8F1030E06000000000000032023232300000000
(1693907035.338409) can0 101##4A805010000000000
(1693907035.338409) can0 101##4A805010000000000
(1693907035.344403) can0 010##484020040063D43
(1693907035.344403) can0 010##484020040063D43
(1693907035.362396) can0 303##49500FF00FFFF01000FFF000FFFFF000000000000
(1693907035.362396) can0 303##49500FF00FFFF01000FFF000FFFFF000000000000
(1693907035.388411) can0 601##4A9F1030E06000000000000032023232300000000
(1693907035.388411) can0 601##4A9F1030E06000000000000032023232300000000
(1693907035.388412) can0 101##4A905010000000000
(1693907035.388412) can0 101##4A905010000000000
(1693907035.393936) can0 010##485020040068522
(1693907035.393936) can0 010##485020040068522
(1693907035.412278) can0 303##49600FF00FFFF01000FFF000FFFFF000000000000
(1693907035.412278) can0 303##49600FF00FFFF01000FFF000FFFFF000000000000
(1693907035.438381) can0 601##4AAF1030E06000000000000032023232300000000
(1693907035.438381) can0 601##4AAF1030E06000000000000032023232300000000
(1693907035.438382) can0 101##4AA05010000000000
(1693907035.438382) can0 101##4AA05010000000000
(1693907035.443891) can0 010##486020040065DA0
(1693907035.443891) can0 010##486020040065DA0
(1693907035.462434) can0 303##49700FF00FFFF01000FFF000FFFFF000000000000
(1693907035.462434) can0 303##49700FF00FFFF01000FFF000FFFFF000000000000
(1693907035.488142) can0 601##4ABF1030E06000000000000032023232300000000
(1693907035.488142) can0 601##4ABF1030E06000000000000032023232300000000
(1693907035.488143) can0 101##4AB05010000000000
(1693907035.488143) can0 101##4AB05010000000000
(1693907035.488143) can0 201##4BB4601
(1693907035.488143) can0 201##4BB4601
(1693907035.494002) can0 010##48702004006E5C1
(1693907035.494002) can0 010##48702004006E5C1
(1693907035.512288) can0 303##49800FF00FFFF01000FFF000FFFFF000000000000
(1693907035.512288) can0 303##49800FF00FFFF01000FFF000FFFFF000000000000
(1693907035.538369) can0 601##4ACF1030E06000000000000032023232300000000
(1693907035.538369) can0 601##4ACF1030E06000000000000032023232300000000
(1693907035.538370) can0 101##4AC05010000000000
(1693907035.538370) can0 101##4AC05010000000000
(1693907035.543932) can0 010##488020040066F28
(1693907035.543932) can0 010##488020040066F28
(1693907035.548904) can0 202##56F465FB4455FAC000B0019000E000001
(1693907035.548904) can0 202##56F465FB4455FAC000B0019000E000001
(1693907035.562411) can0 303##49900FF00FFFF01000FFF000FFFFF000000000000
(1693907035.562411) can0 303##49900FF00FFFF01000FFF000FFFFF000000000000
(1693907035.588108) can0 601##4ADF1030E06000000000000032023232300000000
(1693907035.588108) can0 601##4ADF1030E06000000000000032023232300000000
(1693907035.588109) can0 101##4AD05020000000000
(1693907035.588109) can0 101##4AD05020000000000
(1693907035.593440) can0 010##48902004006D749
(1693907035.593440) can0 010##48902004006D749
(1693907035.612283) can0 303##49A00FF00FFFF01000FFF000FFFFF000000000000
(1693907035.612283) can0 303##49A00FF00FFFF01000FFF000FFFFF000000000000
(1693907035.638385) can0 601##4AEF1030E06000000000000032023232300000000
(1693907035.638385) can0 601##4AEF1030E06000000000000032023232300000000
(1693907035.638386) can0 101##4AE05020000000000
(1693907035.638386) can0 101##4AE05020000000000
(1693907035.643944) can0 010##48A020040060FCB
(1693907035.643944) can0 010##48A020040060FCB
(1693907035.662378) can0 303##49B00FF00FFFF01000FFF000FFFFF000000000000
(1693907035.662378) can0 303##49B00FF00FFFF01000FFF000FFFFF000000000000
(1693907035.688108) can0 601##4AFE9030E04000000000000032023232300000000
(1693907035.688108) can0 601##4AFE9030E04000000000000032023232300000000
(1693907035.688109) can0 101##4AF05020000000000
(1693907035.688109) can0 101##4AF05020000000000
(1693907035.693482) can0 010##48B02004006B7AA
(1693907035.693482) can0 010##48B02004006B7AA
(1693907035.712295) can0 303##49C00FF00FFFF01000FFF000FFFFF000000000000
(1693907035.712295) can0 303##49C00FF00FFFF01000FFF000FFFFF000000000000
(1693907035.738173) can0 601##4B0DF030E04000000000000032023232300000000
(1693907035.738173) can0 601##4B0DF030E04000000000000032023232300000000
(1693907035.738174) can0 101##4B005020000000000
(1693907035.738174) can0 101##4B005020000000000
(1693907035.738175) can0 201##4BC4601
(1693907035.738175) can0 201##4BC4601
(1693907035.743473) can0 010##48C02004006AEEE
(1693907035.743473) can0 010##48C02004006AEEE
(1693907035.762380) can0 303##49D00FF00FFFF01000FFF000FFFFF000000000000
(1693907035.762380) can0 303##49D00FF00FFFF01000FFF000FFFFF000000000000
(1693907035.788151) can0 601##4B1DB030E04000000000000032023232300000000
(1693907035.788151) can0 601##4B1DB030E04000000000000032023232300000000
(1693907035.788152) can0 101##4B105020000000000
(1693907035.788152) can0 101##4B105020000000000
(1693907035.793493) can0 010##48D02004006168F
(1693907035.793493) can0 010##48D02004006168F
(1693907035.812286) can0 303##49E00FF00FFFF01000FFF000FFFFF000000000000
(1693907035.812286) can0 303##49E00FF00FFFF01000FFF000FFFFF000000000000
(1693907035.838111) can0 601##4B2DB030E04000000000000032023232300000000
(1693907035.838111) can0 601##4B2DB030E04000000000000032023232300000000
(1693907035.838112) can0 101##4B205020000000000
(1693907035.838112) can0 101##4B205020000000000
(1693907035.847292) can0 010##48E02004006CE0D
(1693907035.847292) can0 010##48E02004006CE0D
(1693907035.862288) can0 303##49F00FF00FFFF01000FFF000FFFFF000000000000
(1693907035.862288) can0 303##49F00FF00FFFF01000FFF000FFFFF000000000000
(1693907035.888351) can0 601##4B3DB030E04000000000000032023232300000000
(1693907035.888351) can0 601##4B3DB030E04000000000000032023232300000000
(1693907035.888353) can0 101##4B305020000000000
(1693907035.888353) can0 101##4B305020000000000
(1693907035.893463) can0 010##48F02004006766C
(1693907035.893463) can0 010##48F02004006766C
(1693907035.912373) can0 303##4A000FF00FFFF01000FFF000FFFFF000000000000
(1693907035.912373) can0 303##4A000FF00FFFF01000FFF000FFFFF000000000000
(1693907035.938170) can0 601##4B4DB030E04000000000000032023232300000000
(1693907035.938170) can0 601##4B4DB030E04000000000000032023232300000000
(1693907035.938171) can0 101##4B405020000000000
(1693907035.938171) can0 101##4B405020000000000
(1693907035.943469) can0 010##49002004006CBFE
(1693907035.943469) can0 010##49002004006CBFE
(1693907035.962286) can0 303##4A100FF00FFFF01000FFF000FFFFF000000000000
(1693907035.962286) can0 303##4A100FF00FFFF01000FFF000FFFFF000000000000
(1693907035.988408) can0 601##4B5DB030E04000000000000032023232300000000
(1693907035.988408) can0 601##4B5DB030E04000000000000032023232300000000
(1693907035.988409) can0 101##4B505020000000000
(1693907035.988409) can0 101##4B505020000000000
(1693907035.988410) can0 201##4BD4601
(1693907035.988410) can0 201##4BD4601
(1693907035.993385) can0 010##49102004006739F
(1693907035.993385) can0 010##49102004006739F
(1693907036.012317) can0 303##4A200FF00FFFF01000FFF000FFFFF000000000000
(1693907036.012317) can0 303##4A200FF00FFFF01000FFF000FFFFF000000000000
(1693907036.038379) can0 601##4B6DB030E04000000000000032023232300000000
(1693907036.038379) can0 601##4B6DB030E04000000000000032023232300000000
(1693907036.038380) can0 101##4B605020000000000
(1693907036.038380) can0 101##4B605020000000000
(1693907036.043637) can0 010##49202004006AB1D
(1693907036.043637) can0 010##49202004006AB1D
(1693907036.062277) can0 303##4A300FF00FFFF01000FFF000FFFFF000000000000
(1693907036.062277) can0 303##4A300FF00FFFF01000FFF000FFFFF000000000000
(1693907036.088228) can0 601##4B7DB030E04000000000000032023232300000000
(1693907036.088228) can0 601##4B7DB030E04000000000000032023232300000000
(1693907036.088230) can0 101##4B705020000000000
(1693907036.088230) can0 101##4B705020000000000
(1693907036.093470) can0 010##49302004006137C
(1693907036.093470) can0 010##49302004006137C
(1693907036.112410) can0 303##4A400FF00FFFF01000FFF000FFFFF000000000000
(1693907036.112410) can0 303##4A400FF00FFFF01000FFF000FFFFF000000000000
(1693907036.138395) can0 601##4B8DB030E04000000000000032023232300000000
(1693907036.138395) can0 601##4B8DB030E04000000000000032023232300000000
(1693907036.138397) can0 101##4B805020000000000
(1693907036.138397) can0 101##4B805020000000000
(1693907036.143797) can0 010##494020040060A38
(1693907036.143797) can0 010##494020040060A38
(1693907036.162301) can0 303##4A500FF00FFFF01000FFF000FFFFF000000000000
(1693907036.162301) can0 303##4A500FF00FFFF01000FFF000FFFFF000000000000
(1693907036.188359) can0 601##4B9DB030E04000000000000032023232300000000
(1693907036.188359) can0 601##4B9DB030E04000000000000032023232300000000
(1693907036.188360) can0 101##4B905020000000000
(1693907036.188360) can0 101##4B905020000000000
(1693907036.193911) can0 010##49502004006B259
(1693907036.193911) can0 010##49502004006B259
(1693907036.212364) can0 303##4A600FF00FFFF01000FFF000FFFFF000000000000
(1693907036.212364) can0 303##4A600FF00FFFF01000FFF000FFFFF000000000000
(1693907036.238401) can0 601##4BADB030E04000000000000032023232300000000
(1693907036.238401) can0 601##4BADB030E04000000000000032023232300000000
(1693907036.238403) can0 101##4BA05020000000000
(1693907036.238403) can0 101##4BA05020000000000
(1693907036.238403) can0 201##4BE4601
(1693907036.238403) can0 201##4BE4601
(1693907036.243598) can0 010##496020040066ADB
(1693907036.243598) can0 010##496020040066ADB
(1693907036.262326) can0 303##4A700FF00FFFF01000FFF000FFFFF000000000000
(1693907036.262326) can0 303##4A700FF00FFFF01000FFF000FFFFF000000000000
(1693907036.288327) can0 601##4BBDB030E04000000000000032023232300000000
(1693907036.288327) can0 601##4BBDB030E04000000000000032023232300000000
(1693907036.288329) can0 101##4BB05020000000000
(1693907036.288329) can0 101##4BB05020000000000
(1693907036.293909) can0 010##49702004006D2BA
(1693907036.293909) can0 010##49702004006D2BA
(1693907036.312391) can0 303##4A800FF00FFFF01000FFF000FFFFF000000000000
(1693907036.312391) can0 303##4A800FF00FFFF01000FFF000FFFFF000000000000
(1693907036.338233) can0 601##4BCDB030E04000000000000032023232300000000
(1693907036.338233) can0 601##4BCDB030E04000000000000032023232300000000
(1693907036.338235) can0 101##4BC05020000000000
(1693907036.338235) can0 101##4BC05020000000000
(1693907036.344334) can0 010##498020040065853
(1693907036.344334) can0 010##498020040065853
(1693907036.362329) can0 303##4A900FF00FFFF01000FFF000FFFFF000000000000
(1693907036.362329) can0 303##4A900FF00FFFF01000FFF000FFFFF000000000000
(1693907036.388169) can0 601##4BDDB030E04000000000000032023232300000000
(1693907036.388169) can0 601##4BDDB030E04000000000000032023232300000000
(1693907036.388171) can0 101##4BD05020000000000
(1693907036.388171) can0 101##4BD05020000000000
(1693907036.393760) can0 010##49902004006E032
(1693907036.393760) can0 010##49902004006E032
(1693907036.412364) can0 303##4AA00FF00FFFF01000FFF000FFFFF000000000000
(1693907036.412364) can0 303##4AA00FF00FFFF01000FFF000FFFFF000000000000
(1693907036.438368) can0 601##4BEDB030E04000000000000032023232300000000
(1693907036.438368) can0 601##4BEDB030E04000000000000032023232300000000
(1693907036.438369) can0 101##4BE05020000000000
(1693907036.438369) can0 101##4BE05020000000000
(1693907036.443985) can0 010##49A0200400638B0
(1693907036.443985) can0 010##49A0200400638B0
(1693907036.462326) can0 303##4AB00FF00FFFF01000FFF000FFFFF000000000000
(1693907036.462326) can0 303##4AB00FF00FFFF01000FFF000FFFFF000000000000
(1693907036.488370) can0 601##4BFDB030E04000000000000032023232300000000
(1693907036.488370) can0 601##4BFDB030E04000000000000032023232300000000
(1693907036.488372) can0 101##4BF05020000000000
(1693907036.488372) can0 101##4BF05020000000000
(1693907036.488373) can0 201##4BF4601
(1693907036.488373) can0 201##4BF4601
(1693907036.493423) can0 010##49B0200400680D1
(1693907036.493423) can0 010##49B0200400680D1
(1693907036.512402) can0 303##4AC00FF00FFFF01000FFF000FFFFF000000000000
(1693907036.512402) can0 303##4AC00FF00FFFF01000FFF000FFFFF000000000000
(1693907036.538378) can0 601##4C0DB030E04000000000000032023232300000000
(1693907036.538378) can0 601##4C0DB030E04000000000000032023232300000000
(1693907036.538379) can0 101##4C005020000000000
(1693907036.538379) can0 101##4C005020000000000
(1693907036.544366) can0 010##49C020040069995
(1693907036.544366) can0 010##49C020040069995
(1693907036.549570) can0 202##570465FB4455ECE001F0019000E000001
(1693907036.549570) can0 202##570465FB4455ECE001F0019000E000001
(1693907036.562302) can0 303##4AD00FF00FFFF01000FFF000FFFFF000000000000
(1693907036.562302) can0 303##4AD00FF00FFFF01000FFF000FFFFF000000000000
(1693907036.588211) can0 601##4C1DB030E04000000000000032023232300000000
(1693907036.588211) can0 601##4C1DB030E04000000000000032023232300000000
(1693907036.588212) can0 101##4C105020000000000
(1693907036.588212) can0 101##4C105020000000000
(1693907036.593410) can0 010##49D0200400621F4
(1693907036.593410) can0 010##49D0200400621F4
(1693907036.612318) can0 303##4AE00FF00FFFF01000FFF000FFFFF000000000000
(1693907036.612318) can0 303##4AE00FF00FFFF01000FFF000FFFFF000000000000
(1693907036.638202) can0 601##4C2DB030E04000000000000032023232300000000
(1693907036.638202) can0 601##4C2DB030E04000000000000032023232300000000
(1693907036.638204) can0 101##4C205020000000000
(1693907036.638204) can0 101##4C205020000000000
(1693907036.643901) can0 010##49E02004006F976
(1693907036.643901) can0 010##49E02004006F976
(1693907036.662368) can0 303##4AF00FF00FFFF01000FFF000FFFFF000000000000
(1693907036.662368) can0 303##4AF00FF00FFFF01000FFF000FFFFF000000000000
(1693907036.688337) can0 601##4C3DB030E04000000000000032023232300000000
(1693907036.688337) can0 601##4C3DB030E04000000000000032023232300000000
(1693907036.688338) can0 101##4C305020000000000
(1693907036.688338) can0 101##4C305020000000000
(1693907036.693436) can0 010##49F020040064117
(1693907036.693436) can0 010##49F020040064117
(1693907036.712382) can0 303##4B000FF00FFFF01000FFF000FFFFF000000000000
(1693907036.712382) can0 303##4B000FF00FFFF01000FFF000FFFFF000000000000
(1693907036.738394) can0 601##4C4DB030E04000000000000032023232300000000
(1693907036.738394) can0 601##4C4DB030E04000000000000032023232300000000
(1693907036.738395) can0 101##4C405020000000000
(1693907036.738395) can0 101##4C405020000000000
(1693907036.738396) can0 201##4C04601
(1693907036.738396) can0 201##4C04601
(1693907036.743834) can0 010##4A0020040069273
(1693907036.743834) can0 010##4A0020040069273
(1693907036.762257) can0 303##4B100FF00FFFF01000FFF000FFFFF000000000000
(1693907036.762257) can0 303##4B100FF00FFFF01000FFF000FFFFF000000000000
(1693907036.788163) can0 601##4C5DB030E04000000000000032023232300000000
(1693907036.788163) can0 601##4C5DB030E04000000000000032023232300000000
(1693907036.788164) can0 101##4C505020000000000
(1693907036.788164) can0 101##4C505020000000000
(1693907036.793768) can0 010##4A1020040062A12
(1693907036.793768) can0 010##4A1020040062A12
(1693907036.812303) can0 303##4B200FF00FFFF01000FFF000FFFFF000000000000
(1693907036.812303) can0 303##4B200FF00FFFF01000FFF000FFFFF000000000000
(1693907036.838379) can0 601##4C6DB030E04000000000000032023232300000000
(1693907036.838379) can0 601##4C6DB030E04000000000000032023232300000000
(1693907036.838381) can0 101##4C605020000000000
(1693907036.838381) can0 101##4C605020000000000
(1693907036.843783) can0 010##4A202004006F290
(1693907036.843783) can0 010##4A202004006F290
(1693907036.862387) can0 303##4B300FF00FFFF01000FFF000FFFFF000000000000
(1693907036.862387) can0 303##4B300FF00FFFF01000FFF000FFFFF000000000000
(1693907036.888219) can0 601##4C7DB030E04000000000000032023232300000000
(1693907036.888219) can0 601##4C7DB030E04000000000000032023232300000000
(1693907036.888220) can0 101##4C705020000000000
(1693907036.888220) can0 101##4C705020000000000
(1693907036.893426) can0 010##4A3020040064AF1
(1693907036.893426) can0 010##4A3020040064AF1
(1693907036.912304) can0 303##4B400FF00FFFF01000FFF000FFFFF000000000000
(1693907036.912304) can0 303##4B400FF00FFFF01000FFF000FFFFF000000000000
(1693907036.938389) can0 601##4C8DB030E04000000000000032023232300000000
(1693907036.938389) can0 601##4C8DB030E04000000000000032023232300000000
(1693907036.938390) can0 101##4C805020000000000
(1693907036.938390) can0 101##4C805020000000000
(1693907036.943339) can0 010##4A40200400653B5
(1693907036.943339) can0 010##4A40200400653B5
(1693907036.962408) can0 303##4B500FF00FFFF01000FFF000FFFFF000000000000
(1693907036.962408) can0 303##4B500FF00FFFF01000FFF000FFFFF000000000000
(1693907036.988200) can0 601##4C9DB030E04000000000000032023232300000000
(1693907036.988200) can0 601##4C9DB030E04000000000000032023232300000000
(1693907036.988201) can0 101##4C905020000000000
(1693907036.988201) can0 101##4C905020000000000
(1693907036.988202) can0 201##4C14601
(1693907036.988202) can0 201##4C14601
(1693907036.993848) can0 010##4A502004006EBD4
(1693907036.993848) can0 010##4A502004006EBD4
(1693907037.012312) can0 303##4B600FF00FFFF01000FFF000FFFFF000000000000
(1693907037.012312) can0 303##4B600FF00FFFF01000FFF000FFFFF000000000000
(1693907037.038374) can0 601##4CADB030E04000000000000032023232300000000
(1693907037.038374) can0 601##4CADB030E04000000000000032023232300000000
(1693907037.038375) can0 101##4CA05020000000000
(1693907037.038375) can0 101##4CA05020000000000
(1693907037.043819) can0 010##4A6020040063356
(1693907037.043819) can0 010##4A6020040063356
(1693907037.062361) can0 303##4B700FF00FFFF01000FFF000FFFFF000000000000
(1693907037.062361) can0 303##4B700FF00FFFF01000FFF000FFFFF000000000000
(1693907037.088209) can0 601##4CBDB030E04000000000000032023232300000000
(1693907037.088209) can0 601##4CBDB030E04000000000000032023232300000000
(1693907037.088210) can0 101##4CB05020000000000
(1693907037.088210) can0 101##4CB05020000000000
(1693907037.093345) can0 010##4A7020040068B37
(1693907037.093345) can0 010##4A7020040068B37
(1693907037.112297) can0 303##4B800FF00FFFF01000FFF000FFFFF000000000000
(1693907037.112297) can0 303##4B800FF00FFFF01000FFF000FFFFF000000000000
(1693907037.138292) can0 601##4CCDB030E04000000000000032023232300000000
(1693907037.138292) can0 601##4CCDB030E04000000000000032023232300000000
(1693907037.138293) can0 101##4CC05020000000000
(1693907037.138293) can0 101##4CC05020000000000
(1693907037.143671) can0 010##4A80200400601DE
(1693907037.143671) can0 010##4A80200400601DE
(1693907037.162285) can0 303##4B900FF00FFFF01000FFF000FFFFF000000000000
(1693907037.162285) can0 303##4B900FF00FFFF01000FFF000FFFFF000000000000
(1693907037.188191) can0 601##4CDDB030E04000000000000032023232300000000
(1693907037.188191) can0 601##4CDDB030E04000000000000032023232300000000
(1693907037.188192) can0 101##4CD05020000000000
(1693907037.188192) can0 101##4CD05020000000000
(1693907037.193365) can0 010##4A902004006B9BF
(1693907037.193365) can0 010##4A902004006B9BF
(1693907037.212376) can0 303##4BA00FF00FFFF01000FFF000FFFFF000000000000
(1693907037.212376) can0 303##4BA00FF00FFFF01000FFF000FFFFF000000000000
(1693907037.238397) can0 601##4CEDB030E04000000000000032023232300000000
(1693907037.238397) can0 601##4CEDB030E04000000000000032023232300000000
(1693907037.238398) can0 101##4CE05020000000000
(1693907037.238398) can0 101##4CE05020000000000
(1693907037.238399) can0 201##4C24601
(1693907037.238399) can0 201##4C24601
(1693907037.243822) can0 010##4AA02004006613D
(1693907037.243822) can0 010##4AA02004006613D
(1693907037.262342) can0 303##4BB00FF00FFFF01000FFF000FFFFF000000000000
(1693907037.262342) can0 303##4BB00FF00FFFF01000FFF000FFFFF000000000000
(1693907037.288367) can0 601##4CFDB030E04000000000000032023232300000000
(1693907037.288367) can0 601##4CFDB030E04000000000000032023232300000000
(1693907037.288369) can0 101##4CF05020000000000
(1693907037.288369) can0 101##4CF05020000000000
(1693907037.293365) can0 010##4AB02004006D95C
(1693907037.293365) can0 010##4AB02004006D95C
(1693907037.312318) can0 303##4BC00FF00FFFF01000FFF000FFFFF000000000000
(1693907037.312318) can0 303##4BC00FF00FFFF01000FFF000FFFFF000000000000
(1693907037.338208) can0 601##4D0DB030E04000000000000032023232300000000
(1693907037.338208) can0 601##4D0DB030E04000000000000032023232300000000
(1693907037.338209) can0 101##4D005020000000000
(1693907037.338209) can0 101##4D005020000000000
(1693907037.343806) can0 010##4AC02004006C018
(1693907037.343806) can0 010##4AC02004006C018
(1693907037.362291) can0 303##4BD00FF00FFFF01000FFF000FFFFF000000000000
(1693907037.362291) can0 303##4BD00FF00FFFF01000FFF000FFFFF000000000000
(1693907037.388206) can0 601##4D1DB030E04000000000000032023232300000000
(1693907037.388206) can0 601##4D1DB030E04000000000000032023232300000000
(1693907037.388207) can0 101##4D105020000000000
(1693907037.388207) can0 101##4D105020000000000
(1693907037.393318) can0 010##4AD020040067879
(1693907037.393318) can0 010##4AD020040067879
(1693907037.412284) can0 303##4BE00FF00FFFF01000FFF000FFFFF000000000000
(1693907037.412284) can0 303##4BE00FF00FFFF01000FFF000FFFFF000000000000
(1693907037.438360) can0 601##4D2DB030E04000000000000032023232300000000
(1693907037.438360) can0 601##4D2DB030E04000000000000032023232300000000
(1693907037.438361) can0 101##4D205020000000000
(1693907037.438361) can0 101##4D205020000000000
(1693907037.443523) can0 010##4AE02004006A0FB
(1693907037.443523) can0 010##4AE02004006A0FB
(1693907037.462406) can0 303##4BF00FF00FFFF01000FFF000FFFFF000000000000
(1693907037.462406) can0 303##4BF00FF00FFFF01000FFF000FFFFF000000000000
(1693907037.488127) can0 601##4D3DB030E04000000000000032023232300000000
(1693907037.488127) can0 601##4D3DB030E04000000000000032023232300000000
(1693907037.488129) can0 101##4D305020000000000
(1693907037.488129) can0 101##4D305020000000000
(1693907037.488129) can0 201##4C34601
(1693907037.488129) can0 201##4C34601
(1693907037.493414) can0 010##4AF02004006189A
(1693907037.493414) can0 010##4AF02004006189A
(1693907037.512309) can0 303##4C000FF00FFFF01000FFF000FFFFF000000000000
(1693907037.512309) can0 303##4C000FF00FFFF01000FFF000FFFFF000000000000
(1693907037.538331) can0 601##4D4DB030E04000000000000032023232300000000
(1693907037.538331) can0 601##4D4DB030E04000000000000032023232300000000
(1693907037.538332) can0 101##4D405020000000000
(1693907037.538332) can0 101##4D405020000000000
(1693907037.543785) can0 010##4B002004006A508
(1693907037.543785) can0 010##4B002004006A508
(1693907037.550274) can0 202##571465FB4455F16001F0019000E000001
(1693907037.550274) can0 202##571465FB4455F16001F0019000E000001
(1693907037.562327) can0 303##4C100FF00FFFF01000FFF000FFFFF000000000000
(1693907037.562327) can0 303##4C100FF00FFFF01000FFF000FFFFF000000000000
(1693907037.588194) can0 601##4D5DB030E04000000000000032023232300000000
(1693907037.588194) can0 601##4D5DB030E04000000000000032023232300000000
(1693907037.588195) can0 101##4D505020000000000
(1693907037.588195) can0 101##4D505020000000000
(1693907037.593307) can0 010##4B1020040061D69
(1693907037.593307) can0 010##4B1020040061D69
(1693907037.612173) can0 303##4C200FF00FFFF01000FFF000FFFFF000000000000
(1693907037.612173) can0 303##4C200FF00FFFF01000FFF000FFFFF000000000000
(1693907037.638346) can0 601##4D6DB030E04000000000000032023232300000000
(1693907037.638346) can0 601##4D6DB030E04000000000000032023232300000000
(1693907037.638347) can0 101##4D605020000000000
(1693907037.638347) can0 101##4D605020000000000
(1693907037.643277) can0 010##4B202004006C5EB
(1693907037.643277) can0 010##4B202004006C5EB
(1693907037.662330) can0 303##4C300FF00FFFF01000FFF000FFFFF000000000000
(1693907037.662330) can0 303##4C300FF00FFFF01000FFF000FFFFF000000000000
(1693907037.688304) can0 601##4D7DB030E04000000000000032023232300000000
(1693907037.688304) can0 601##4D7DB030E04000000000000032023232300000000
(1693907037.688305) can0 101##4D705020000000000
(1693907037.688305) can0 101##4D705020000000000
(1693907037.698026) can0 010##4B3020040067D8A
(1693907037.698026) can0 010##4B3020040067D8A
(1693907037.712336) can0 303##4C400FF00FFFF01000FFF000FFFFF000000000000
(1693907037.712336) can0 303##4C400FF00FFFF01000FFF000FFFFF000000000000
(1693907037.738369) can0 601##4D8DB030E04000000000000032023232300000000
(1693907037.738369) can0 601##4D8DB030E04000000000000032023232300000000
(1693907037.738370) can0 101##4D805020000000000
(1693907037.738370) can0 101##4D805020000000000
(1693907037.738371) can0 201##4C44601
(1693907037.738371) can0 201##4C44601
(1693907037.743332) can0 010##4B40200400664CE
(1693907037.743332) can0 010##4B40200400664CE
(1693907037.762353) can0 303##4C500FF00FFFF01000FFF000FFFFF000000000000
(1693907037.762353) can0 303##4C500FF00FFFF01000FFF000FFFFF000000000000
(1693907037.788332) can0 601##4D9DB030E04000000000000032023232300000000
(1693907037.788332) can0 601##4D9DB030E04000000000000032023232300000000
(1693907037.788333) can0 101##4D905020000000000
(1693907037.788333) can0 101##4D905020000000000
(1693907037.793328) can0 010##4B502004006DCAF
(1693907037.793328) can0 010##4B502004006DCAF
(1693907037.812295) can0 303##4C600FF00FFFF01000FFF000FFFFF000000000000
(1693907037.812295) can0 303##4C600FF00FFFF01000FFF000FFFFF000000000000
(1693907037.838296) can0 601##4DADB030E04000000000000032023232300000000
(1693907037.838296) can0 601##4DADB030E04000000000000032023232300000000
(1693907037.838297) can0 101##4DA05020000000000
(1693907037.838297) can0 101##4DA05020000000000
(1693907037.843762) can0 010##4B602004006042D
(1693907037.843762) can0 010##4B602004006042D
(1693907037.862293) can0 303##4C700FF00FFFF01000FFF000FFFFF000000000000
(1693907037.862293) can0 303##4C700FF00FFFF01000FFF000FFFFF000000000000
(1693907037.888319) can0 601##4DBDB030E04000000000000032023232300000000
(1693907037.888319) can0 601##4DBDB030E04000000000000032023232300000000
(1693907037.888321) can0 101##4DB05020000000000
(1693907037.888321) can0 101##4DB05020000000000
(1693907037.893142) can0 010##4B702004006BC4C
(1693907037.893142) can0 010##4B702004006BC4C
(1693907037.912358) can0 303##4C800FF00FFFF01000FFF000FFFFF000000000000
(1693907037.912358) can0 303##4C800FF00FFFF01000FFF000FFFFF000000000000
(1693907037.938306) can0 601##4DCDB030E04000000000000032023232300000000
(1693907037.938306) can0 601##4DCDB030E04000000000000032023232300000000
(1693907037.938307) can0 101##4DC05020000000000
(1693907037.938307) can0 101##4DC05020000000000
(1693907037.943361) can0 010##4B80200400636A5
(1693907037.943361) can0 010##4B80200400636A5
(1693907037.962302) can0 303##4C900FF00FFFF01000FFF000FFFFF000000000000
(1693907037.962302) can0 303##4C900FF00FFFF01000FFF000FFFFF000000000000
(1693907037.988254) can0 601##4DDDB030E04000000000000032023232300000000
(1693907037.988254) can0 601##4DDDB030E04000000000000032023232300000000
(1693907037.988255) can0 101##4DD05020000000000
(1693907037.988255) can0 101##4DD05020000000000
(1693907037.988256) can0 201##4C54601
(1693907037.988256) can0 201##4C54601
(1693907037.992993) can0 010##4B9020040068EC4
(1693907037.992993) can0 010##4B9020040068EC4
(1693907038.012320) can0 303##4CA00FF00FFFF01000FFF000FFFFF000000000000
(1693907038.012320) can0 303##4CA00FF00FFFF01000FFF000FFFFF000000000000
(1693907038.038384) can0 601##4DEDB030E04000000000000032023232300000000
(1693907038.038384) can0 601##4DEDB030E04000000000000032023232300000000
(1693907038.038385) can0 101##4DE05020000000000
(1693907038.038385) can0 101##4DE05020000000000
(1693907038.046314) can0 010##4BA020040065646
(1693907038.046314) can0 010##4BA020040065646
(1693907038.062309) can0 303##4CB00FF00FFFF01000FFF000FFFFF000000000000
(1693907038.062309) can0 303##4CB00FF00FFFF01000FFF000FFFFF000000000000
(1693907038.088369) can0 601##4DFDB030E04000000000000032023232300000000
(1693907038.088369) can0 601##4DFDB030E04000000000000032023232300000000
(1693907038.088371) can0 101##4DF05020000000000
(1693907038.088371) can0 101##4DF05020000000000
(1693907038.093935) can0 010##4BB02004006EE27
(1693907038.093935) can0 010##4BB02004006EE27
(1693907038.112358) can0 303##4CC00FF00FFFF01000FFF000FFFFF000000000000
(1693907038.112358) can0 303##4CC00FF00FFFF01000FFF000FFFFF000000000000
(1693907038.138329) can0 601##4E0DB030E04000000000000032023232300000000
(1693907038.138329) can0 601##4E0DB030E04000000000000032023232300000000
(1693907038.138330) can0 101##4E005020000000000
(1693907038.138330) can0 101##4E005020000000000
(1693907038.143777) can0 010##4BC02004006F763
(1693907038.143777) can0 010##4BC02004006F763
(1693907038.162363) can0 303##4CD00FF00FFFF01000FFF000FFFFF000000000000
(1693907038.162363) can0 303##4CD00FF00FFFF01000FFF000FFFFF000000000000
(1693907038.188357) can0 601##4E1DB030E04000000000000032023232300000000
(1693907038.188357) can0 601##4E1DB030E04000000000000032023232300000000
(1693907038.188358) can0 101##4E105020000000000
(1693907038.188358) can0 101##4E105020000000000
(1693907038.193275) can0 010##4BD020040064F02
(1693907038.193275) can0 010##4BD020040064F02
(1693907038.212223) can0 303##4CE00FF00FFFF01000FFF000FFFFF000000000000
(1693907038.212223) can0 303##4CE00FF00FFFF01000FFF000FFFFF000000000000
(1693907038.238280) can0 601##4E2DB030E04000000000000032023232300000000
(1693907038.238280) can0 601##4E2DB030E04000000000000032023232300000000
(1693907038.238281) can0 101##4E205020000000000
(1693907038.238281) can0 101##4E205020000000000
(1693907038.238282) can0 201##4C64601
(1693907038.238282) can0 201##4C64601
(1693907038.243709) can0 010##4BE020040069780
(1693907038.243709) can0 010##4BE020040069780
(1693907038.262385) can0 303##4CF00FF00FFFF01000FFF000FFFFF000000000000
(1693907038.262385) can0 303##4CF00FF00FFFF01000FFF000FFFFF000000000000
(1693907038.288303) can0 601##4E3DB030E04000000000000032023232300000000
(1693907038.288303) can0 601##4E3DB030E04000000000000032023232300000000
(1693907038.288304) can0 101##4E305020000000000
(1693907038.288304) can0 101##4E305020000000000
(1693907038.294074) can0 010##4BF020040062FE1
(1693907038.294074) can0 010##4BF020040062FE1
(1693907038.312316) can0 303##4D000FF00FFFF01000FFF000FFFFF000000000000
(1693907038.312316) can0 303##4D000FF00FFFF01000FFF000FFFFF000000000000
(1693907038.338225) can0 601##4E4DB030E04000000000000032023232300000000
(1693907038.338225) can0 601##4E4DB030E04000000000000032023232300000000
(1693907038.338227) can0 101##4E405020000000000
(1693907038.338227) can0 101##4E405020000000000
(1693907038.343558) can0 010##4C0020040062169
(1693907038.343558) can0 010##4C0020040062169
(1693907038.362360) can0 303##4D100FF00FFFF01000FFF000FFFFF000000000000
(1693907038.362360) can0 303##4D100FF00FFFF01000FFF000FFFFF000000000000
(1693907038.388307) can0 601##4E5DB030E04000000000000032023232300000000
(1693907038.388307) can0 601##4E5DB030E04000000000000032023232300000000
(1693907038.388308) can0 101##4E505020000000000
(1693907038.388308) can0 101##4E505020000000000
(1693907038.393592) can0 010##4C1020040069908
(1693907038.393592) can0 010##4C1020040069908
(1693907038.412308) can0 303##4D200FF00FFFF01000FFF000FFFFF000000000000
(1693907038.412308) can0 303##4D200FF00FFFF01000FFF000FFFFF000000000000
(1693907038.438332) can0 601##4E6DB030E04000000000000032023232300000000
(1693907038.438332) can0 601##4E6DB030E04000000000000032023232300000000
(1693907038.438333) can0 101##4E605020000000000
(1693907038.438333) can0 101##4E605020000000000
(1693907038.444295) can0 010##4C202004006418A
(1693907038.444295) can0 010##4C202004006418A
(1693907038.462361) can0 303##4D300FF00FFFF01000FFF000FFFFF000000000000
(1693907038.462361) can0 303##4D300FF00FFFF01000FFF000FFFFF000000000000
(1693907038.488360) can0 601##4E7DB030E04000000000000032023232300000000
(1693907038.488360) can0 601##4E7DB030E04000000000000032023232300000000
(1693907038.488362) can0 101##4E705020000000000
(1693907038.488362) can0 101##4E705020000000000
(1693907038.488363) can0 201##4C74601
(1693907038.488363) can0 201##4C74601
(1693907038.495034) can0 010##4C302004006F9EB
(1693907038.495034) can0 010##4C302004006F9EB
(1693907038.512292) can0 303##4D400FF00FFFF01000FFF000FFFFF000000000000
(1693907038.512292) can0 303##4D400FF00FFFF01000FFF000FFFFF000000000000
(1693907038.538299) can0 601##4E8DB030E04000000000000032023232300000000
(1693907038.538299) can0 601##4E8DB030E04000000000000032023232300000000
(1693907038.538300) can0 101##4E805020000000000
(1693907038.538300) can0 101##4E805020000000000
(1693907038.543362) can0 010##4C402004006E0AF
(1693907038.543362) can0 010##4C402004006E0AF
(1693907038.551045) can0 202##572465FB4455F7000200019000E000001
(1693907038.551045) can0 202##572465FB4455F7000200019000E000001
(1693907038.562367) can0 303##4D500FF00FFFF01000FFF000FFFFF000000000000
(1693907038.562367) can0 303##4D500FF00FFFF01000FFF000FFFFF000000000000
(1693907038.588220) can0 601##4E9DB030E04000000000000032023232300000000
(1693907038.588220) can0 601##4E9DB030E04000000000000032023232300000000
(1693907038.588221) can0 101##4E905020000000000
(1693907038.588221) can0 101##4E905020000000000
(1693907038.593291) can0 010##4C50200400658CE
(1693907038.593291) can0 010##4C50200400658CE
(1693907038.612319) can0 303##4D600FF00FFFF01000FFF000FFFFF000000000000
(1693907038.612319) can0 303##4D600FF00FFFF01000FFF000FFFFF000000000000
(1693907038.638294) can0 601##4EADB030E04000000000000032023232300000000
(1693907038.638294) can0 601##4EADB030E04000000000000032023232300000000
(1693907038.638295) can0 101##4EA05020000000000
(1693907038.638295) can0 101##4EA05020000000000
(1693907038.643719) can0 010##4C602004006804C
(1693907038.643719) can0 010##4C602004006804C
(1693907038.662341) can0 303##4D700FF00FFFF01000FFF000FFFFF000000000000
(1693907038.662341) can0 303##4D700FF00FFFF01000FFF000FFFFF000000000000
(1693907038.688319) can0 601##4EBDB030E04000000000000032023232300000000
(1693907038.688319) can0 601##4EBDB030E04000000000000032023232300000000
(1693907038.688320) can0 101##4EB05020000000000
(1693907038.688320) can0 101##4EB05020000000000
(1693907038.693303) can0 010##4C702004006382D
(1693907038.693303) can0 010##4C702004006382D
(1693907038.712310) can0 303##4D800FF00FFFF01000FFF000FFFFF000000000000
(1693907038.712310) can0 303##4D800FF00FFFF01000FFF000FFFFF000000000000
(1693907038.738348) can0 601##4ECDB030E04000000000000032023232300000000
(1693907038.738348) can0 601##4ECDB030E04000000000000032023232300000000
(1693907038.738349) can0 101##4EC05020000000000
(1693907038.738349) can0 101##4EC05020000000000
(1693907038.738350) can0 201##4C84601
(1693907038.738350) can0 201##4C84601
(1693907038.743738) can0 010##4C802004006B2C4
(1693907038.743738) can0 010##4C802004006B2C4
(1693907038.762367) can0 303##4D900FF00FFFF01000FFF000FFFFF000000000000
(1693907038.762367) can0 303##4D900FF00FFFF01000FFF000FFFFF000000000000
(1693907038.788330) can0 601##4EDDB030E04000000000000032023232300000000
(1693907038.788330) can0 601##4EDDB030E04000000000000032023232300000000
(1693907038.788331) can0 101##4ED05030000000000
(1693907038.788331) can0 101##4ED05030000000000
(1693907038.793264) can0 010##4C9020040060AA5
(1693907038.793264) can0 010##4C9020040060AA5
(1693907038.812305) can0 303##4DA00FF00FFFF01000FFF000FFFFF000000000000
(1693907038.812305) can0 303##4DA00FF00FFFF01000FFF000FFFFF000000000000
(1693907038.838366) can0 601##4EEDC030E04000000000000032023232300000000
(1693907038.838366) can0 601##4EEDC030E04000000000000032023232300000000
(1693907038.838367) can0 101##4EE05030000000000
(1693907038.838367) can0 101##4EE05030000000000
(1693907038.843661) can0 010##4CA02004006D227
(1693907038.843661) can0 010##4CA02004006D227
(1693907038.862363) can0 303##4DB00FF00FFFF01000FFF000FFFFF000000000000
(1693907038.862363) can0 303##4DB00FF00FFFF01000FFF000FFFFF000000000000
(1693907038.888292) can0 601##4EFDC030E04000000000000032023232300000000
(1693907038.888292) can0 601##4EFDC030E04000000000000032023232300000000
(1693907038.888293) can0 101##4EF05030000000000
(1693907038.888293) can0 101##4EF05030000000000
(1693907038.893235) can0 010##4CB020040066A46
(1693907038.893235) can0 010##4CB020040066A46
(1693907038.912295) can0 303##4DC00FF00FFFF01000FFF000FFFFF000000000000
(1693907038.912295) can0 303##4DC00FF00FFFF01000FFF000FFFFF000000000000
(1693907038.938350) can0 601##4F0DC030E04000000000000032023232300000000
(1693907038.938350) can0 601##4F0DC030E04000000000000032023232300000000
(1693907038.938351) can0 101##4F005030000000000
(1693907038.938351) can0 101##4F005030000000000
(1693907038.943299) can0 010##4CC020040067302
(1693907038.943299) can0 010##4CC020040067302
(1693907038.962348) can0 303##4DD00FF00FFFF01000FFF000FFFFF000000000000
(1693907038.962348) can0 303##4DD00FF00FFFF01000FFF000FFFFF000000000000
(1693907038.988401) can0 601##4F1DC030E04000000000000032023232300000000
(1693907038.988401) can0 601##4F1DC030E04000000000000032023232300000000
(1693907038.988402) can0 101##4F105030000000000
(1693907038.988402) can0 101##4F105030000000000
(1693907038.988403) can0 201##4C96401
(1693907038.988403) can0 201##4C96401
(1693907038.993217) can0 010##4CD02004006CB63
(1693907038.993217) can0 010##4CD02004006CB63
(1693907039.012310) can0 303##4DE00FF00FFFF01000FFF000FFFFF000000000000
(1693907039.012310) can0 303##4DE00FF00FFFF01000FFF000FFFFF000000000000
(1693907039.038344) can0 601##4F2DC030E04000000000000032023232300000000
(1693907039.038344) can0 601##4F2DC030E04000000000000032023232300000000
(1693907039.038345) can0 101##4F205030000000000
(1693907039.038345) can0 101##4F205030000000000
(1693907039.043667) can0 010##4CE0200400613E1
(1693907039.043667) can0 010##4CE0200400613E1
(1693907039.062369) can0 303##4DF00FF00FFFF01000FFF000FFFFF000000000000
(1693907039.062369) can0 303##4DF00FF00FFFF01000FFF000FFFFF000000000000
(1693907039.088380) can0 601##4F3DC030E04000000000000032023232300000000
(1693907039.088380) can0 601##4F3DC030E04000000000000032023232300000000
(1693907039.088382) can0 101##4F305030000000000
(1693907039.088382) can0 101##4F305030000000000
(1693907039.093245) can0 010##4CF02004006AB80
(1693907039.093245) can0 010##4CF02004006AB80
(1693907039.112322) can0 303##4E000FF00FFFF01000FFF000FFFFF000000000000
(1693907039.112322) can0 303##4E000FF00FFFF01000FFF000FFFFF000000000000
(1693907039.138359) can0 601##4F4DC030E04000000000000032023232300000000
(1693907039.138359) can0 601##4F4DC030E04000000000000032023232300000000
(1693907039.138360) can0 101##4F405030000000000
(1693907039.138360) can0 101##4F405030000000000
(1693907039.143698) can0 010##4D0020040061612
(1693907039.143698) can0 010##4D0020040061612
(1693907039.162314) can0 303##4E100FF00FFFF01000FFF000FFFFF000000000000
(1693907039.162314) can0 303##4E100FF00FFFF01000FFF000FFFFF000000000000
(1693907039.188419) can0 601##4F5DC030E04000000000000032023232300000000
(1693907039.188419) can0 601##4F5DC030E04000000000000032023232300000000
(1693907039.188420) can0 101##4F505030000000000
(1693907039.188420) can0 101##4F505030000000000
(1693907039.193196) can0 010##4D102004006AE73
(1693907039.193196) can0 010##4D102004006AE73
(1693907039.212289) can0 303##4E200FF00FFFF01000FFF000FFFFF000000000000
(1693907039.212289) can0 303##4E200FF00FFFF01000FFF000FFFFF000000000000
(1693907039.238383) can0 601##4F6DC030E04000000000000032023232300000000
(1693907039.238383) can0 601##4F6DC030E04000000000000032023232300000000
(1693907039.238384) can0 101##4F605030000000000
(1693907039.238384) can0 101##4F605030000000000
(1693907039.238384) can0 201##4CA6401
(1693907039.238384) can0 201##4CA6401
(1693907039.243351) can0 010##4D20200400676F1
(1693907039.243351) can0 010##4D20200400676F1
(1693907039.262366) can0 303##4E300FF00FFFF01000FFF000FFFFF000000000000
(1693907039.262366) can0 303##4E300FF00FFFF01000FFF000FFFFF000000000000
(1693907039.288306) can0 601##4F7DC030E04000000000000032023232300000000
