(1693907125.393193) can0 010##4D00200580254B6
(1693907125.393193) can0 010##4D00200580254B6
(1693907125.443195) can0 010##4D102005802ECD7
(1693907125.443195) can0 010##4D102005802ECD7
(1693907125.492941) can0 010##4D2020058023455
(1693907125.492941) can0 010##4D2020058023455
(1693907125.543175) can0 010##4D3020058028C34
(1693907125.543175) can0 010##4D3020058028C34
(1693907125.592949) can0 010##4D4020058029570
(1693907125.592949) can0 010##4D4020058029570
(1693907125.643184) can0 010##4D5020058022D11
(1693907125.643184) can0 010##4D5020058022D11
(1693907125.678406) can0 601##400D9030502000000000000011F21212000000000
(1693907125.678406) can0 601##400D9030502000000000000011F21212000000000
(1693907125.678407) can0 101##40000000000000000
(1693907125.678407) can0 101##40000000000000000
(1693907125.693229) can0 010##4D602005802F593
(1693907125.693229) can0 010##4D602005802F593
(1693907125.728092) can0 601##401D9030502000000000000011F21212000000000
(1693907125.728092) can0 601##401D9030502000000000000011F21212000000000
(1693907125.728093) can0 101##40100000000000000
(1693907125.728093) can0 101##40100000000000000
(1693907125.743259) can0 010##4D7020058024DF2
(1693907125.743259) can0 010##4D7020058024DF2
(1693907125.778082) can0 601##402D9030502000000000000011F21212000000000
(1693907125.778082) can0 601##402D9030502000000000000011F21212000000000
(1693907125.778083) can0 101##40200000000000000
(1693907125.778083) can0 101##40200000000000000
(1693907125.793060) can0 010##4D802005802C71B
(1693907125.793060) can0 010##4D802005802C71B
(1693907125.828063) can0 601##403D9030502000000000000011F21212000000000
(1693907125.828063) can0 601##403D9030502000000000000011F21212000000000
(1693907125.828064) can0 101##40300000000000000
(1693907125.828064) can0 101##40300000000000000
(1693907125.844899) can0 010##4D9020058027F7A
(1693907125.844899) can0 010##4D9020058027F7A
(1693907125.878521) can0 601##404D9030502000000000000031F21212000000000
(1693907125.878521) can0 601##404D9030502000000000000031F21212000000000
(1693907125.878522) can0 101##40400000000000000
(1693907125.878522) can0 101##40400000000000000
(1693907125.878523) can0 201##4000000
(1693907125.878523) can0 201##4000000
(1693907125.893145) can0 010##4DA02005802A7F8
(1693907125.893145) can0 010##4DA02005802A7F8
(1693907125.928067) can0 601##405D9030502000000000000031F21212000000000
(1693907125.928067) can0 601##405D9030502000000000000031F21212000000000
(1693907125.928068) can0 101##40500000000000000
(1693907125.928068) can0 101##40500000000000000
(1693907125.943180) can0 010##4DB020058021F99
(1693907125.943180) can0 010##4DB020058021F99
(1693907125.978085) can0 601##406D9030502000000000000031F21212000000000
(1693907125.978085) can0 601##406D9030502000000000000031F21212000000000
(1693907125.978086) can0 101##40601000000000000
(1693907125.978086) can0 101##40601000000000000
(1693907125.993142) can0 010##4DC0200580206DD
(1693907125.993142) can0 010##4DC0200580206DD
(1693907126.028156) can0 601##407D9030502000000000000031F21212000000000
(1693907126.028156) can0 601##407D9030502000000000000031F21212000000000
(1693907126.028157) can0 101##40701000000000000
(1693907126.028157) can0 101##40701000000000000
(1693907126.042901) can0 010##4DD02005802BEBC
(1693907126.042901) can0 010##4DD02005802BEBC
(1693907126.078528) can0 601##408D9030502000000000000031F21212000000000
(1693907126.078528) can0 601##408D9030502000000000000031F21212000000000
(1693907126.078529) can0 101##40802000000000000
(1693907126.078529) can0 101##40802000000000000
(1693907126.093157) can0 010##4DE02005802663E
(1693907126.093157) can0 010##4DE02005802663E
(1693907126.128455) can0 601##409D9030502000000000000031F21212000000000
(1693907126.128455) can0 601##409D9030502000000000000031F21212000000000
(1693907126.128457) can0 101##40902000000000000
(1693907126.128457) can0 101##40902000000000000
(1693907126.128457) can0 201##4010001
(1693907126.128457) can0 201##4010001
(1693907126.143176) can0 010##4DF02005802DE5F
(1693907126.143176) can0 010##4DF02005802DE5F
(1693907126.155672) can0 7E0##402
(1693907126.155672) can0 7E0##402
(1693907126.157693) can0 020##41400A500DC
(1693907126.157693) can0 020##41400A500DC
(1693907126.178165) can0 601##40AD9030502000000000000031F21212000000000
(1693907126.178165) can0 601##40AD9030502000000000000031F21212000000000
(1693907126.178166) can0 101##40A02000000000000
(1693907126.178166) can0 101##40A02000000000000
(1693907126.193235) can0 010##4E0020058020D3B
(1693907126.193235) can0 010##4E0020058020D3B
(1693907126.228590) can0 601##40BD9030502000000000000031F21212000000000
(1693907126.228590) can0 601##40BD9030502000000000000031F21212000000000
(1693907126.228591) can0 101##40B02000000000000
(1693907126.228591) can0 101##40B02000000000000
(1693907126.243176) can0 010##4E102005802B55A
(1693907126.243176) can0 010##4E102005802B55A
(1693907126.255873) can0 7E0##402
(1693907126.255873) can0 7E0##402
(1693907126.257875) can0 020##41400A500DC
(1693907126.257875) can0 020##41400A500DC
(1693907126.278133) can0 601##40CD9030502000000000000031F21212000000000
(1693907126.278133) can0 601##40CD9030502000000000000031F21212000000000
(1693907126.278134) can0 101##40C02000000000000
(1693907126.278134) can0 101##40C02000000000000
(1693907126.293118) can0 010##4E2020058026DD8
(1693907126.293118) can0 010##4E2020058026DD8
(1693907126.328586) can0 601##40DD9030502000000000000031F21212000000000
(1693907126.328586) can0 601##40DD9030502000000000000031F21212000000000
(1693907126.328587) can0 101##40D02000000000000
(1693907126.328587) can0 101##40D02000000000000
(1693907126.343317) can0 010##4E302005802D5B9
(1693907126.343317) can0 010##4E302005802D5B9
(1693907126.378154) can0 601##40ED9030502000000000000031F21212000000000
(1693907126.378154) can0 601##40ED9030502000000000000031F21212000000000
(1693907126.378156) can0 101##40E02000000000000
(1693907126.378156) can0 101##40E02000000000000
(1693907126.378156) can0 201##4020001
(1693907126.378156) can0 201##4020001
(1693907126.393165) can0 010##4E402005802CCFD
(1693907126.393165) can0 010##4E402005802CCFD
(1693907126.402756) can0 202##50100000000000000000019000E000000
(1693907126.402756) can0 202##50100000000000000000019000E000000
(1693907126.428058) can0 601##40FD9030502000000000000031F21212000000000
(1693907126.428058) can0 601##40FD9030502000000000000031F21212000000000
(1693907126.428059) can0 101##40F02000000000000
(1693907126.428059) can0 101##40F02000000000000
(1693907126.443135) can0 010##4E502005802749C
(1693907126.443135) can0 010##4E502005802749C
(1693907126.453103) can0 311#FFFFFFFFFFFFFFFF
(1693907126.453103) can0 311#FFFFFFFFFFFFFFFF
(1693907126.456187) can0 7E0##402
(1693907126.456187) can0 7E0##402
(1693907126.458180) can0 020##41400A500DC
(1693907126.458180) can0 020##41400A500DC
(1693907126.478085) can0 601##410D9030502000000000000031F21212000000000
(1693907126.478085) can0 601##410D9030502000000000000031F21212000000000
(1693907126.478086) can0 101##41003000000000000
(1693907126.478086) can0 101##41003000000000000
(1693907126.493150) can0 010##4E602005802AC1E
(1693907126.493150) can0 010##4E602005802AC1E
(1693907126.528201) can0 601##411D9030502000000000000031F21212000000000
(1693907126.528201) can0 601##411D9030502000000000000031F21212000000000
(1693907126.528202) can0 101##41103000000000000
(1693907126.528202) can0 101##41103000000000000
(1693907126.543219) can0 010##4E702005802147F
(1693907126.543219) can0 010##4E702005802147F
(1693907126.578502) can0 601##412D9030502000000000000031F21212000000000
(1693907126.578502) can0 601##412D9030502000000000000031F21212000000000
(1693907126.578503) can0 101##41204000000000000
(1693907126.578503) can0 101##41204000000000000
(1693907126.593228) can0 010##4E8020058029E96
(1693907126.593228) can0 010##4E8020058029E96
(1693907126.628107) can0 601##413D9030502000000000000031F21212000000000
(1693907126.628107) can0 601##413D9030502000000000000031F21212000000000
(1693907126.628108) can0 101##41304000000000000
(1693907126.628108) can0 101##41304000000000000
(1693907126.628109) can0 201##4030001
(1693907126.628109) can0 201##4030001
(1693907126.643302) can0 010##4E90200580226F7
(1693907126.643302) can0 010##4E90200580226F7
(1693907126.658578) can0 303##40000FF00FFFF01000FFF000FFFFF000000000000
(1693907126.658578) can0 303##40000FF00FFFF01000FFF000FFFFF000000000000
(1693907126.678581) can0 601##414D9030502000000000000031F21212000000000
(1693907126.678581) can0 601##414D9030502000000000000031F21212000000000
(1693907126.678583) can0 101##41403000000000000
(1693907126.678583) can0 101##41403000000000000
(1693907126.693233) can0 010##4EA02005802FE75
(1693907126.693233) can0 010##4EA02005802FE75
(1693907126.708515) can0 303##40100FF00FFFF01000FFF000FFFFF000000000000
(1693907126.708515) can0 303##40100FF00FFFF01000FFF000FFFFF000000000000
(1693907126.728578) can0 601##415D9030502000000000000031F21212000000000
(1693907126.728578) can0 601##415D9030502000000000000031F21212000000000
(1693907126.728581) can0 101##41503000000000000
(1693907126.728581) can0 101##41503000000000000
(1693907126.743210) can0 010##4EB020058024614
(1693907126.743210) can0 010##4EB020058024614
(1693907126.759090) can0 303##40200FF00FFFF01000FFF000FFFFF000000000000
(1693907126.759090) can0 303##40200FF00FFFF01000FFF000FFFFF000000000000
(1693907126.778145) can0 601##416D9030502000000000000031F21212000000000
(1693907126.778145) can0 601##416D9030502000000000000031F21212000000000
(1693907126.778146) can0 101##41606000000000000
(1693907126.778146) can0 101##41606000000000000
(1693907126.793203) can0 010##4EC020058025F50
(1693907126.793203) can0 010##4EC020058025F50
(1693907126.808642) can0 303##40300FF00FFFF01000FFF000FFFFF000000000000
(1693907126.808642) can0 303##40300FF00FFFF01000FFF000FFFFF000000000000
(1693907126.828056) can0 601##417D9030502000000000000031F21212000000000
(1693907126.828056) can0 601##417D9030502000000000000031F21212000000000
(1693907126.828057) can0 101##41706000000000000
(1693907126.828057) can0 101##41706000000000000
(1693907126.843298) can0 010##4ED02005802E731
(1693907126.843298) can0 010##4ED02005802E731
(1693907126.856878) can0 311##4000001000000
(1693907126.856878) can0 311##4000001000000
(1693907126.858658) can0 303##404000001010001000FFF000FFFFF000000000000
(1693907126.858658) can0 303##404000001010001000FFF000FFFFF000000000000
(1693907126.878564) can0 601##418D9030D02000000000000031F21212000000000
(1693907126.878564) can0 601##418D9030D02000000000000031F21212000000000
(1693907126.878565) can0 101##41806000000000000
(1693907126.878565) can0 101##41806000000000000
(1693907126.878566) can0 201##4040001
(1693907126.878566) can0 201##4040001
(1693907126.893249) can0 010##4EE020058023FB3
(1693907126.893249) can0 010##4EE020058023FB3
(1693907126.909119) can0 303##405000001010001000FFF000FFFFF000000000000
(1693907126.909119) can0 303##405000001010001000FFF000FFFFF000000000000
(1693907126.928600) can0 601##419D9030D02000000000000031F21212000000000
(1693907126.928600) can0 601##419D9030D02000000000000031F21212000000000
(1693907126.928602) can0 101##41906000000000000
(1693907126.928602) can0 101##41906000000000000
(1693907126.943386) can0 010##4EF0200580287D2
(1693907126.943386) can0 010##4EF0200580287D2
(1693907126.958576) can0 303##406000002010001000FFF000FFFFF000000000000
(1693907126.958576) can0 303##406000002010001000FFF000FFFFF000000000000
(1693907126.978623) can0 601##41AD9030D02000000000000031F21212000000000
(1693907126.978623) can0 601##41AD9030D02000000000000031F21212000000000
(1693907126.978624) can0 101##41A06000000000000
(1693907126.978624) can0 101##41A06000000000000
(1693907126.993290) can0 010##4F0020058023A40
(1693907126.993290) can0 010##4F0020058023A40
(1693907127.008640) can0 303##40700FF00FFFF01000FFF000FFFFF000000000000
(1693907127.008640) can0 303##40700FF00FFFF01000FFF000FFFFF000000000000
(1693907127.028610) can0 601##41BD9030D02000000000000031F21212000000000
(1693907127.028610) can0 601##41BD9030D02000000000000031F21212000000000
(1693907127.028611) can0 101##41B06000000000000
(1693907127.028611) can0 101##41B06000000000000
(1693907127.043336) can0 010##4F1020058028221
(1693907127.043336) can0 010##4F1020058028221
(1693907127.058626) can0 303##40800FF00FFFF01000FFF000FFFFF000000000000
(1693907127.058626) can0 303##40800FF00FFFF01000FFF000FFFFF000000000000
(1693907127.078545) can0 601##41CD9030D02000000000000031F21212000000000
(1693907127.078545) can0 601##41CD9030D02000000000000031F21212000000000
(1693907127.078546) can0 101##41C06000000000000
(1693907127.078546) can0 101##41C06000000000000
(1693907127.093247) can0 010##4F2020058025AA3
(1693907127.093247) can0 010##4F2020058025AA3
(1693907127.107411) can0 311##4010100000000
(1693907127.107411) can0 311##4010100000000
(1693907127.108626) can0 303##409000101000001000FFF000FFFFF000000000000
(1693907127.108626) can0 303##409000101000001000FFF000FFFFF000000000000
(1693907127.128145) can0 601##41DD9030C02000000000000031F21212000000000
(1693907127.128145) can0 601##41DD9030C02000000000000031F21212000000000
(1693907127.128146) can0 101##41D06000000000000
(1693907127.128146) can0 101##41D06000000000000
(1693907127.128147) can0 201##4050001
(1693907127.128147) can0 201##4050001
(1693907127.143325) can0 010##4F302005802E2C2
(1693907127.143325) can0 010##4F302005802E2C2
(1693907127.158669) can0 303##40A000101000001000FFF000FFFFF000000000000
(1693907127.158669) can0 303##40A000101000001000FFF000FFFFF000000000000
(1693907127.178645) can0 601##41ED9030C02000000000000031F21212000000000
(1693907127.178645) can0 601##41ED9030C02000000000000031F21212000000000
(1693907127.178646) can0 101##41E06000000000000
(1693907127.178646) can0 101##41E06000000000000
(1693907127.193265) can0 010##4F402005802FB86
(1693907127.193265) can0 010##4F402005802FB86
(1693907127.208663) can0 303##40B000102000001000FFF000FFFFF000000000000
(1693907127.208663) can0 303##40B000102000001000FFF000FFFFF000000000000
(1693907127.228600) can0 601##41FD9030C02000000000000031F21212000000000
(1693907127.228600) can0 601##41FD9030C02000000000000031F21212000000000
(1693907127.228603) can0 101##41F06000000000000
(1693907127.228603) can0 101##41F06000000000000
(1693907127.243323) can0 010##4F50200580243E7
(1693907127.243323) can0 010##4F50200580243E7
(1693907127.259059) can0 303##40C00FF00FFFF01000FFF000FFFFF000000000000
(1693907127.259059) can0 303##40C00FF00FFFF01000FFF000FFFFF000000000000
(1693907127.278138) can0 601##420D9030C02000000000000031F21212000000000
(1693907127.278138) can0 601##420D9030C02000000000000031F21212000000000
(1693907127.278140) can0 101##42006000000000000
(1693907127.278140) can0 101##42006000000000000
(1693907127.298469) can0 010##4F6020058029B65
(1693907127.298469) can0 010##4F6020058029B65
(1693907127.308675) can0 303##40D00FF00FFFF01000FFF000FFFFF000000000000
(1693907127.308675) can0 303##40D00FF00FFFF01000FFF000FFFFF000000000000
(1693907127.328211) can0 601##421D9030C02000000000000031F21212000000000
(1693907127.328211) can0 601##421D9030C02000000000000031F21212000000000
(1693907127.328213) can0 101##42106000000000000
(1693907127.328213) can0 101##42106000000000000
(1693907127.343488) can0 010##4F7020058022304
(1693907127.343488) can0 010##4F7020058022304
(1693907127.358189) can0 311##4020000010000
(1693907127.358189) can0 311##4020000010000
(1693907127.358191) can0 303##40E000001000101000FFF000FFFFF000000000000
(1693907127.358191) can0 303##40E000001000101000FFF000FFFFF000000000000
(1693907127.378638) can0 601##422D9030E02000000000000031F21212000000000
(1693907127.378638) can0 601##422D9030E02000000000000031F21212000000000
(1693907127.378640) can0 101##42206000000000000
(1693907127.378640) can0 101##42206000000000000
(1693907127.378640) can0 201##4060001
(1693907127.378640) can0 201##4060001
(1693907127.393349) can0 010##4F802005802A9ED
(1693907127.393349) can0 010##4F802005802A9ED
(1693907127.403154) can0 202##50200000000000000000019000E000000
(1693907127.403154) can0 202##50200000000000000000019000E000000
(1693907127.408644) can0 303##40F000001000101000FFF000FFFFF000000000000
(1693907127.408644) can0 303##40F000001000101000FFF000FFFFF000000000000
(1693907127.428161) can0 601##423D9030E02000000000000031F21212000000000
(1693907127.428161) can0 601##423D9030E02000000000000031F21212000000000
(1693907127.428163) can0 101##42306000000000000
(1693907127.428163) can0 101##42306000000000000
(1693907127.443295) can0 010##4F902005802118C
(1693907127.443295) can0 010##4F902005802118C
(1693907127.459017) can0 303##410000002000101000FFF000FFFFF000000000000
(1693907127.459017) can0 303##410000002000101000FFF000FFFFF000000000000
(1693907127.478192) can0 601##424D9030E02000000000000031F21212000000000
(1693907127.478192) can0 601##424D9030E02000000000000031F21212000000000
(1693907127.478193) can0 101##42406000000000000
(1693907127.478193) can0 101##42406000000000000
(1693907127.493330) can0 010##4FA02005802C90E
(1693907127.493330) can0 010##4FA02005802C90E
(1693907127.508657) can0 303##41100FF00FFFF01000FFF000FFFFF000000000000
(1693907127.508657) can0 303##41100FF00FFFF01000FFF000FFFFF000000000000
(1693907127.528633) can0 601##425D9030E02000000000000031F21212000000000
(1693907127.528633) can0 601##425D9030E02000000000000031F21212000000000
(1693907127.528634) can0 101##42506000000000000
(1693907127.528634) can0 101##42506000000000000
(1693907127.543355) can0 010##4FB02005802716F
(1693907127.543355) can0 010##4FB02005802716F
(1693907127.558631) can0 303##41200FF00FFFF01000FFF000FFFFF000000000000
(1693907127.558631) can0 303##41200FF00FFFF01000FFF000FFFFF000000000000
(1693907127.578175) can0 601##426D9030E02000000000000031F21212000000000
(1693907127.578175) can0 601##426D9030E02000000000000031F21212000000000
(1693907127.578176) can0 101##42606000000000000
(1693907127.578176) can0 101##42606000000000000
(1693907127.593378) can0 010##4FC02005802682B
(1693907127.593378) can0 010##4FC02005802682B
(1693907127.608635) can0 303##41300FF00FFFF01000FFF000FFFFF000000000000
(1693907127.608635) can0 303##41300FF00FFFF01000FFF000FFFFF000000000000
(1693907127.628182) can0 601##427D9030E02000000000000031F21212000000000
(1693907127.628182) can0 601##427D9030E02000000000000031F21212000000000
(1693907127.628183) can0 101##42705000000000000
(1693907127.628183) can0 101##42705000000000000
(1693907127.628184) can0 201##4074601
(1693907127.628184) can0 201##4074601
(1693907127.643579) can0 010##4FD02005802D04A
(1693907127.643579) can0 010##4FD02005802D04A
(1693907127.658743) can0 303##41400FF00FFFF01000FFF000FFFFF000000000000
(1693907127.658743) can0 303##41400FF00FFFF01000FFF000FFFFF000000000000
(1693907127.678630) can0 601##428D9030E02000000000000031F21212000000000
(1693907127.678630) can0 601##428D9030E02000000000000031F21212000000000
(1693907127.678631) can0 101##42805000000000000
(1693907127.678631) can0 101##42805000000000000
(1693907127.693464) can0 010##4FE0200580208C8
(1693907127.693464) can0 010##4FE0200580208C8
(1693907127.708608) can0 303##41500FF00FFFF01000FFF000FFFFF000000000000
(1693907127.708608) can0 303##41500FF00FFFF01000FFF000FFFFF000000000000
(1693907127.711606) can0 401##40001000000000000
(1693907127.711606) can0 401##40001000000000000
(1693907127.714280) can0 410##4000100
(1693907127.714280) can0 410##4000100
(1693907127.728577) can0 601##429D9030E02000000000000031F21212000000000
(1693907127.728577) can0 601##429D9030E02000000000000031F21212000000000
(1693907127.728579) can0 101##42905000000000000
(1693907127.728579) can0 101##42905000000000000
(1693907127.743352) can0 010##4FF02005802B0A9
(1693907127.743352) can0 010##4FF02005802B0A9
(1693907127.758578) can0 303##41600FF00FFFF01000FFF000FFFFF000000000000
(1693907127.758578) can0 303##41600FF00FFFF01000FFF000FFFFF000000000000
(1693907127.778190) can0 601##42AD9030E02000000000000031F21212000000000
(1693907127.778190) can0 601##42AD9030E02000000000000031F21212000000000
(1693907127.778191) can0 101##42A05010000000000
(1693907127.778191) can0 101##42A05010000000000
(1693907127.793446) can0 010##4000200580215D8
(1693907127.793446) can0 010##4000200580215D8
(1693907127.808604) can0 303##41700FF00FFFF01000FFF000FFFFF000000000000
(1693907127.808604) can0 303##41700FF00FFFF01000FFF000FFFFF000000000000
(1693907127.828118) can0 601##42BD9030E02000000000000031F21212000000000
(1693907127.828118) can0 601##42BD9030E02000000000000031F21212000000000
(1693907127.828119) can0 101##42B05010000000000
(1693907127.828119) can0 101##42B05010000000000
(1693907127.843551) can0 010##40102005802ADB9
(1693907127.843551) can0 010##40102005802ADB9
(1693907127.858631) can0 303##41800FF00FFFF01000FFF000FFFFF000000000000
(1693907127.858631) can0 303##41800FF00FFFF01000FFF000FFFFF000000000000
(1693907127.878079) can0 601##42CD9030E02000000000000031F21212000000000
(1693907127.878079) can0 601##42CD9030E02000000000000031F21212000000000
(1693907127.878080) can0 101##42C05010000000000
(1693907127.878080) can0 101##42C05010000000000
(1693907127.878080) can0 201##4084601
(1693907127.878080) can0 201##4084601
(1693907127.893242) can0 010##40202005802753B
(1693907127.893242) can0 010##40202005802753B
(1693907127.908502) can0 303##41900FF00FFFF01000FFF000FFFFF000000000000
(1693907127.908502) can0 303##41900FF00FFFF01000FFF000FFFFF000000000000
(1693907127.928121) can0 601##42DD9030E02000000000000031F21212000000000
(1693907127.928121) can0 601##42DD9030E02000000000000031F21212000000000
(1693907127.928123) can0 101##42D05010000000000
(1693907127.928123) can0 101##42D05010000000000
(1693907127.943376) can0 010##40302005802CD5A
(1693907127.943376) can0 010##40302005802CD5A
(1693907127.958591) can0 303##41A00FF00FFFF01000FFF000FFFFF000000000000
(1693907127.958591) can0 303##41A00FF00FFFF01000FFF000FFFFF000000000000
(1693907127.978089) can0 601##42ED9030E02000000000000031F21212000000000
(1693907127.978089) can0 601##42ED9030E02000000000000031F21212000000000
(1693907127.978091) can0 101##42E05010000000000
(1693907127.978091) can0 101##42E05010000000000
(1693907127.993269) can0 010##40402005802D41E
(1693907127.993269) can0 010##40402005802D41E
(1693907128.008653) can0 303##41B00FF00FFFF01000FFF000FFFFF000000000000
(1693907128.008653) can0 303##41B00FF00FFFF01000FFF000FFFFF000000000000
(1693907128.028132) can0 601##42FD9030E02000000000000031F21212000000000
(1693907128.028132) can0 601##42FD9030E02000000000000031F21212000000000
(1693907128.028133) can0 101##42F05010000000000
(1693907128.028133) can0 101##42F05010000000000
(1693907128.043338) can0 010##405020058026C7F
(1693907128.043338) can0 010##405020058026C7F
(1693907128.058585) can0 303##41C00FF00FFFF01000FFF000FFFFF000000000000
(1693907128.058585) can0 303##41C00FF00FFFF01000FFF000FFFFF000000000000
(1693907128.078200) can0 601##430D9030E02000000000000031F21212000000000
(1693907128.078200) can0 601##430D9030E02000000000000031F21212000000000
(1693907128.078201) can0 101##43005010000000000
(1693907128.078201) can0 101##43005010000000000
(1693907128.093320) can0 010##40602005802B4FD
(1693907128.093320) can0 010##40602005802B4FD
(1693907128.108657) can0 303##41D00FF00FFFF01000FFF000FFFFF000000000000
(1693907128.108657) can0 303##41D00FF00FFFF01000FFF000FFFFF000000000000
(1693907128.128681) can0 601##431D9030E02000000000000031F21212000000000
(1693907128.128681) can0 601##431D9030E02000000000000031F21212000000000
(1693907128.128682) can0 101##43105010000000000
(1693907128.128682) can0 101##43105010000000000
(1693907128.128682) can0 201##4094601
(1693907128.128682) can0 201##4094601
(1693907128.143414) can0 010##407020058020C9C
(1693907128.143414) can0 010##407020058020C9C
(1693907128.159088) can0 303##41E00FF00FFFF01000FFF000FFFFF000000000000
(1693907128.159088) can0 303##41E00FF00FFFF01000FFF000FFFFF000000000000
(1693907128.178667) can0 601##432D9030E02000000000000031F21212000000000
(1693907128.178667) can0 601##432D9030E02000000000000031F21212000000000
(1693907128.178668) can0 101##43205010000000000
(1693907128.178668) can0 101##43205010000000000
(1693907128.193328) can0 010##408020058028675
(1693907128.193328) can0 010##408020058028675
(1693907128.208655) can0 303##41F00FF00FFFF01000FFF000FFFFF000000000000
(1693907128.208655) can0 303##41F00FF00FFFF01000FFF000FFFFF000000000000
(1693907128.228146) can0 601##433DA030E02000000000000031F21212000000000
(1693907128.228146) can0 601##433DA030E02000000000000031F21212000000000
(1693907128.228147) can0 101##43305010000000000
(1693907128.228147) can0 101##43305010000000000
(1693907128.243906) can0 010##409020058023E14
(1693907128.243906) can0 010##409020058023E14
(1693907128.259091) can0 303##42000FF00FFFF01000FFF000FFFFF000000000000
(1693907128.259091) can0 303##42000FF00FFFF01000FFF000FFFFF000000000000
(1693907128.278257) can0 601##434DA030E02000000000000031F21212000000000
(1693907128.278257) can0 601##434DA030E02000000000000031F21212000000000
(1693907128.278258) can0 101##43405010000000000
(1693907128.278258) can0 101##43405010000000000
(1693907128.293862) can0 010##40A02005802E696
(1693907128.293862) can0 010##40A02005802E696
(1693907128.308650) can0 303##42100FF00FFFF01000FFF000FFFFF000000000000
(1693907128.308650) can0 303##42100FF00FFFF01000FFF000FFFFF000000000000
(1693907128.328167) can0 601##435DA030E02000000000000031F21212000000000
(1693907128.328167) can0 601##435DA030E02000000000000031F21212000000000
(1693907128.328169) can0 101##43505010000000000
(1693907128.328169) can0 101##43505010000000000
(1693907128.343856) can0 010##40B020058025EF7
(1693907128.343856) can0 010##40B020058025EF7
(1693907128.359060) can0 303##42200FF00FFFF01000FFF000FFFFF000000000000
(1693907128.359060) can0 303##42200FF00FFFF01000FFF000FFFFF000000000000
(1693907128.378681) can0 601##436DA030E02000000000000031F21212000000000
(1693907128.378681) can0 601##436DA030E02000000000000031F21212000000000
(1693907128.378682) can0 101##43605010000000000
(1693907128.378682) can0 101##43605010000000000
(1693907128.378683) can0 201##40A4601
(1693907128.378683) can0 201##40A4601
(1693907128.393584) can0 010##40C0200580247B3
(1693907128.393584) can0 010##40C0200580247B3
(1693907128.404862) can0 202##503465FB40E13CE00030019000E000000
(1693907128.404862) can0 202##503465FB40E13CE00030019000E000000
(1693907128.408616) can0 303##42300FF00FFFF01000FFF000FFFFF000000000000
(1693907128.408616) can0 303##42300FF00FFFF01000FFF000FFFFF000000000000
(1693907128.428219) can0 601##437DA030E02000000000000031F21212000000000
(1693907128.428219) can0 601##437DA030E02000000000000031F21212000000000
(1693907128.428220) can0 101##43705010000000000
(1693907128.428220) can0 101##43705010000000000
(1693907128.443896) can0 010##40D02005802FFD2
(1693907128.443896) can0 010##40D02005802FFD2
(1693907128.459108) can0 303##42400FF00FFFF01000FFF000FFFFF000000000000
(1693907128.459108) can0 303##42400FF00FFFF01000FFF000FFFFF000000000000
(1693907128.478329) can0 601##438DA030E02000000000000031F21212000000000
(1693907128.478329) can0 601##438DA030E02000000000000031F21212000000000
(1693907128.478330) can0 101##43805010000000000
(1693907128.478330) can0 101##43805010000000000
(1693907128.493520) can0 010##40E020058022750
(1693907128.493520) can0 010##40E020058022750
(1693907128.508653) can0 303##42500FF00FFFF01000FFF000FFFFF000000000000
(1693907128.508653) can0 303##42500FF00FFFF01000FFF000FFFFF000000000000
(1693907128.528699) can0 601##439DA030E02000000000000031F21212000000000
(1693907128.528699) can0 601##439DA030E02000000000000031F21212000000000
(1693907128.528701) can0 101##43905010000000000
(1693907128.528701) can0 101##43905010000000000
(1693907128.543902) can0 010##40F020058029F31
(1693907128.543902) can0 010##40F020058029F31
(1693907128.559002) can0 303##42600FF00FFFF01000FFF000FFFFF000000000000
(1693907128.559002) can0 303##42600FF00FFFF01000FFF000FFFFF000000000000
(1693907128.578403) can0 601##43ADB030E02000000000000031F21212000000000
(1693907128.578403) can0 601##43ADB030E02000000000000031F21212000000000
(1693907128.578404) can0 101##43A05010000000000
(1693907128.578404) can0 101##43A05010000000000
(1693907128.593277) can0 010##4100200580222A3
(1693907128.593277) can0 010##4100200580222A3
(1693907128.608640) can0 303##42700FF00FFFF01000FFF000FFFFF000000000000
(1693907128.608640) can0 303##42700FF00FFFF01000FFF000FFFFF000000000000
(1693907128.628254) can0 601##43BDB030E06000000000000031F21212000000000
(1693907128.628254) can0 601##43BDB030E06000000000000031F21212000000000
(1693907128.628256) can0 101##43B05010000000000
(1693907128.628256) can0 101##43B05010000000000
(1693907128.628256) can0 201##40B4601
(1693907128.628256) can0 201##40B4601
(1693907128.643780) can0 010##411020058029AC2
(1693907128.643780) can0 010##411020058029AC2
(1693907128.659084) can0 303##42800FF00FFFF01000FFF000FFFFF000000000000
(1693907128.659084) can0 303##42800FF00FFFF01000FFF000FFFFF000000000000
(1693907128.678692) can0 601##43CDB030E06000000000000031F21212000000000
(1693907128.678692) can0 601##43CDB030E06000000000000031F21212000000000
(1693907128.678693) can0 101##43C05010000000000
(1693907128.678693) can0 101##43C05010000000000
(1693907128.693869) can0 010##412020058024240
(1693907128.693869) can0 010##412020058024240
(1693907128.708586) can0 303##42900FF00FFFF01000FFF000FFFFF000000000000
(1693907128.708586) can0 303##42900FF00FFFF01000FFF000FFFFF000000000000
(1693907128.728635) can0 601##43DDB030E06000000000000031F21212000000000
(1693907128.728635) can0 601##43DDB030E06000000000000031F21212000000000
(1693907128.728636) can0 101##43D05010000000000
(1693907128.728636) can0 101##43D05010000000000
(1693907128.743744) can0 010##41302005802FA21
(1693907128.743744) can0 010##41302005802FA21
(1693907128.759086) can0 303##42A00FF00FFFF01000FFF000FFFFF000000000000
(1693907128.759086) can0 303##42A00FF00FFFF01000FFF000FFFFF000000000000
(1693907128.778254) can0 601##43EDB030E06000000000000031F21212000000000
(1693907128.778254) can0 601##43EDB030E06000000000000031F21212000000000
(1693907128.778256) can0 101##43E05010000000000
(1693907128.778256) can0 101##43E05010000000000
(1693907128.796263) can0 010##41402005802E365
(1693907128.796263) can0 010##41402005802E365
(1693907128.808568) can0 303##42B00FF00FFFF01000FFF000FFFFF000000000000
(1693907128.808568) can0 303##42B00FF00FFFF01000FFF000FFFFF000000000000
(1693907128.828506) can0 601##43FDC030E06000000000000031F21212000000000
(1693907128.828506) can0 601##43FDC030E06000000000000031F21212000000000
(1693907128.828506) can0 101##43F05010000000000
(1693907128.828506) can0 101##43F05010000000000
(1693907128.843473) can0 010##415020058025B04
(1693907128.843473) can0 010##415020058025B04
(1693907128.858615) can0 303##42C00FF00FFFF01000FFF000FFFFF000000000000
(1693907128.858615) can0 303##42C00FF00FFFF01000FFF000FFFFF000000000000
(1693907128.878351) can0 601##440DC030E06000000000000031F21212000000000
(1693907128.878351) can0 601##440DC030E06000000000000031F21212000000000
(1693907128.878352) can0 101##44005010000000000
(1693907128.878352) can0 101##44005010000000000
(1693907128.878353) can0 201##40C4601
(1693907128.878353) can0 201##40C4601
(1693907128.893669) can0 010##416020058028386
(1693907128.893669) can0 010##416020058028386
(1693907128.908611) can0 303##42D00FF00FFFF01000FFF000FFFFF000000000000
(1693907128.908611) can0 303##42D00FF00FFFF01000FFF000FFFFF000000000000
(1693907128.928210) can0 601##441DC030E06000000000000031F21212000000000
(1693907128.928210) can0 601##441DC030E06000000000000031F21212000000000
(1693907128.928211) can0 101##44105010000000000
(1693907128.928211) can0 101##44105010000000000
(1693907128.943146) can0 010##417020058023BE7
(1693907128.943146) can0 010##417020058023BE7
(1693907128.959134) can0 303##42E00FF00FFFF01000FFF000FFFFF000000000000
(1693907128.959134) can0 303##42E00FF00FFFF01000FFF000FFFFF000000000000
(1693907128.978733) can0 601##442DC030E06000000000000031F21212000000000
(1693907128.978733) can0 601##442DC030E06000000000000031F21212000000000
(1693907128.978734) can0 101##44205010000000000
(1693907128.978734) can0 101##44205010000000000
(1693907128.994010) can0 010##41802005802B10E
(1693907128.994010) can0 010##41802005802B10E
(1693907129.008668) can0 303##42F00FF00FFFF01000FFF000FFFFF000000000000
(1693907129.008668) can0 303##42F00FF00FFFF01000FFF000FFFFF000000000000
(1693907129.028193) can0 601##443DC030E06000000000000031F21212000000000
(1693907129.028193) can0 601##443DC030E06000000000000031F21212000000000
(1693907129.028194) can0 101##44305010000000000
(1693907129.028194) can0 101##44305010000000000
(1693907129.043628) can0 010##41902005802096F
(1693907129.043628) can0 010##41902005802096F
(1693907129.058764) can0 303##43000FF00FFFF01000FFF000FFFFF000000000000
(1693907129.058764) can0 303##43000FF00FFFF01000FFF000FFFFF000000000000
(1693907129.078686) can0 601##444DD030E06000000000000031F21212000000000
(1693907129.078686) can0 601##444DD030E06000000000000031F21212000000000
(1693907129.078687) can0 101##44405010000000000
(1693907129.078687) can0 101##44405010000000000
(1693907129.093966) can0 010##41A02005802D1ED
(1693907129.093966) can0 010##41A02005802D1ED
(1693907129.108637) can0 303##43100FF00FFFF01000FFF000FFFFF000000000000
(1693907129.108637) can0 303##43100FF00FFFF01000FFF000FFFFF000000000000
(1693907129.128150) can0 601##445DD030E06000000000000031F21212000000000
(1693907129.128150) can0 601##445DD030E06000000000000031F21212000000000
(1693907129.128151) can0 101##44505010000000000
(1693907129.128151) can0 101##44505010000000000
(1693907129.128152) can0 201##40D4601
(1693907129.128152) can0 201##40D4601
(1693907129.143977) can0 010##41B02005802698C
(1693907129.143977) can0 010##41B02005802698C
(1693907129.159108) can0 303##43200FF00FFFF01000FFF000FFFFF000000000000
(1693907129.159108) can0 303##43200FF00FFFF01000FFF000FFFFF000000000000
(1693907129.178274) can0 601##446DD030E06000000000000031F21212000000000
(1693907129.178274) can0 601##446DD030E06000000000000031F21212000000000
(1693907129.178275) can0 101##44605010000000000
(1693907129.178275) can0 101##44605010000000000
(1693907129.193578) can0 010##41C0200580270C8
(1693907129.193578) can0 010##41C0200580270C8
(1693907129.208523) can0 303##43300FF00FFFF01000FFF000FFFFF000000000000
(1693907129.208523) can0 303##43300FF00FFFF01000FFF000FFFFF000000000000
(1693907129.228632) can0 601##447DE030E06000000000000031F21212000000000
(1693907129.228632) can0 601##447DE030E06000000000000031F21212000000000
(1693907129.228633) can0 101##44705010000000000
(1693907129.228633) can0 101##44705010000000000
(1693907129.243578) can0 010##41D02005802C8A9
(1693907129.243578) can0 010##41D02005802C8A9
(1693907129.259085) can0 303##43400FF00FFFF01000FFF000FFFFF000000000000
(1693907129.259085) can0 303##43400FF00FFFF01000FFF000FFFFF000000000000
(1693907129.278682) can0 601##448DE030E06000000000000031F21212000000000
(1693907129.278682) can0 601##448DE030E06000000000000031F21212000000000
(1693907129.278683) can0 101##44805010000000000
(1693907129.278683) can0 101##44805010000000000
(1693907129.293984) can0 010##41E02005802102B
(1693907129.293984) can0 010##41E02005802102B
(1693907129.308658) can0 303##43500FF00FFFF01000FFF000FFFFF000000000000
(1693907129.308658) can0 303##43500FF00FFFF01000FFF000FFFFF000000000000
(1693907129.328597) can0 601##449DE030E06000000000000031F21212000000000
(1693907129.328597) can0 601##449DE030E06000000000000031F21212000000000
(1693907129.328598) can0 101##44905010000000000
(1693907129.328598) can0 101##44905010000000000
(1693907129.343978) can0 010##41F02005802A84A
(1693907129.343978) can0 010##41F02005802A84A
(1693907129.359102) can0 303##43600FF00FFFF01000FFF000FFFFF000000000000
(1693907129.359102) can0 303##43600FF00FFFF01000FFF000FFFFF000000000000
(1693907129.378763) can0 601##44ADF030E06000000000000031F21212000000000
(1693907129.378763) can0 601##44ADF030E06000000000000031F21212000000000
(1693907129.378764) can0 101##44A05010000000000
(1693907129.378764) can0 101##44A05010000000000
(1693907129.378765) can0 201##40E4601
(1693907129.378765) can0 201##40E4601
(1693907129.394039) can0 010##420020058027B2E
(1693907129.394039) can0 010##420020058027B2E
(1693907129.405586) can0 202##504465FB4222F6A00080019000E000000
(1693907129.405586) can0 202##504465FB4222F6A00080019000E000000
(1693907129.408662) can0 303##43700FF00FFFF01000FFF000FFFFF000000000000
(1693907129.408662) can0 303##43700FF00FFFF01000FFF000FFFFF000000000000
(1693907129.428274) can0 601##44BDF030E06000000000000031F21212000000000
(1693907129.428274) can0 601##44BDF030E06000000000000031F21212000000000
(1693907129.428275) can0 101##44B05010000000000
(1693907129.428275) can0 101##44B05010000000000
(1693907129.443663) can0 010##42102005802C34F
(1693907129.443663) can0 010##42102005802C34F
(1693907129.458655) can0 303##43800FF00FFFF01000FFF000FFFFF000000000000
(1693907129.458655) can0 303##43800FF00FFFF01000FFF000FFFFF000000000000
(1693907129.478720) can0 601##44CDF030E06000000000000031F21212000000000
(1693907129.478720) can0 601##44CDF030E06000000000000031F21212000000000
(1693907129.478721) can0 101##44C05010000000000
(1693907129.478721) can0 101##44C05010000000000
(1693907129.494029) can0 010##422020058021BCD
(1693907129.494029) can0 010##422020058021BCD
(1693907129.508678) can0 303##43900FF00FFFF01000FFF000FFFFF000000000000
(1693907129.508678) can0 303##43900FF00FFFF01000FFF000FFFFF000000000000
(1693907129.528675) can0 601##44DE0030E06000000000000031F21212000000000
(1693907129.528675) can0 601##44DE0030E06000000000000031F21212000000000
(1693907129.528676) can0 101##44D05010000000000
(1693907129.528676) can0 101##44D05010000000000
(1693907129.544040) can0 010##42302005802A3AC
(1693907129.544040) can0 010##42302005802A3AC
(1693907129.559107) can0 303##43A00FF00FFFF01000FFF000FFFFF000000000000
(1693907129.559107) can0 303##43A00FF00FFFF01000FFF000FFFFF000000000000
(1693907129.578441) can0 601##44EE0030E06000000000000031F21212000000000
(1693907129.578441) can0 601##44EE0030E06000000000000031F21212000000000
(1693907129.578442) can0 101##44E05010000000000
(1693907129.578442) can0 101##44E05010000000000
(1693907129.593608) can0 010##42402005802BAE8
(1693907129.593608) can0 010##42402005802BAE8
(1693907129.608614) can0 303##43B00FF00FFFF01000FFF000FFFFF000000000000
(1693907129.608614) can0 303##43B00FF00FFFF01000FFF000FFFFF000000000000
(1693907129.628588) can0 601##44FE0030E06000000000000031F21212000000000
(1693907129.628588) can0 601##44FE0030E06000000000000031F21212000000000
(1693907129.628590) can0 101##44F05010000000000
(1693907129.628590) can0 101##44F05010000000000
(1693907129.628590) can0 201##40F4601
(1693907129.628590) can0 201##40F4601
(1693907129.644014) can0 010##425020058020289
(1693907129.644014) can0 010##425020058020289
(1693907129.658652) can0 303##43C00FF00FFFF01000FFF000FFFFF000000000000
(1693907129.658652) can0 303##43C00FF00FFFF01000FFF000FFFFF000000000000
(1693907129.678497) can0 601##450E1030E06000000000000031F21212000000000
(1693907129.678497) can0 601##450E1030E06000000000000031F21212000000000
(1693907129.678498) can0 101##45005010000000000
(1693907129.678498) can0 101##45005010000000000
(1693907129.694991) can0 010##42602005802DA0B
(1693907129.694991) can0 010##42602005802DA0B
(1693907129.708672) can0 303##43D00FF00FFFF01000FFF000FFFFF000000000000
(1693907129.708672) can0 303##43D00FF00FFFF01000FFF000FFFFF000000000000
(1693907129.728782) can0 601##451E1030E06000000000000031F21212000000000
(1693907129.728782) can0 601##451E1030E06000000000000031F21212000000000
(1693907129.728783) can0 101##45105010000000000
(1693907129.728783) can0 101##45105010000000000
(1693907129.744059) can0 010##42702005802626A
(1693907129.744059) can0 010##42702005802626A
(1693907129.759117) can0 303##43E00FF00FFFF01000FFF000FFFFF000000000000
(1693907129.759117) can0 303##43E00FF00FFFF01000FFF000FFFFF000000000000
(1693907129.778767) can0 601##452E1030E06000000000000031F21212000000000
(1693907129.778767) can0 601##452E1030E06000000000000031F21212000000000
(1693907129.778768) can0 101##45205010000000000
(1693907129.778768) can0 101##45205010000000000
(1693907129.794022) can0 010##42802005802E883
(1693907129.794022) can0 010##42802005802E883
(1693907129.808691) can0 303##43F00FF00FFFF01000FFF000FFFFF000000000000
(1693907129.808691) can0 303##43F00FF00FFFF01000FFF000FFFFF000000000000
(1693907129.828327) can0 601##453E2030E06000000000000031F21212000000000
(1693907129.828327) can0 601##453E2030E06000000000000031F21212000000000
(1693907129.828328) can0 101##45305010000000000
(1693907129.828328) can0 101##45305010000000000
(1693907129.844049) can0 010##4290200580250E2
(1693907129.844049) can0 010##4290200580250E2
(1693907129.858682) can0 303##44000FF00FFFF01000FFF000FFFFF000000000000
(1693907129.858682) can0 303##44000FF00FFFF01000FFF000FFFFF000000000000
(1693907129.878330) can0 601##454E2030E06000000000000031F21212000000000
(1693907129.878330) can0 601##454E2030E06000000000000031F21212000000000
(1693907129.878331) can0 101##45405010000000000
(1693907129.878331) can0 101##45405010000000000
(1693907129.878331) can0 201##4104601
(1693907129.878331) can0 201##4104601
(1693907129.893759) can0 010##42A020058028860
(1693907129.893759) can0 010##42A020058028860
(1693907129.908607) can0 303##44100FF00FFFF01000FFF000FFFFF000000000000
(1693907129.908607) can0 303##44100FF00FFFF01000FFF000FFFFF000000000000
(1693907129.928298) can0 601##455E3030E06000000000000031F21212000000000
(1693907129.928298) can0 601##455E3030E06000000000000031F21212000000000
(1693907129.928299) can0 101##45505010000000000
(1693907129.928299) can0 101##45505010000000000
(1693907129.943657) can0 010##42B020058023001
(1693907129.943657) can0 010##42B020058023001
(1693907129.958610) can0 303##44200FF00FFFF01000FFF000FFFFF000000000000
(1693907129.958610) can0 303##44200FF00FFFF01000FFF000FFFFF000000000000
(1693907129.978401) can0 601##456E3030E06000000000000031F21212000000000
(1693907129.978401) can0 601##456E3030E06000000000000031F21212000000000
(1693907129.978402) can0 101##45605010000000000
(1693907129.978402) can0 101##45605010000000000
(1693907129.994372) can0 010##42C020058022945
(1693907129.994372) can0 010##42C020058022945
(1693907130.008607) can0 303##44300FF00FFFF01000FFF000FFFFF000000000000
(1693907130.008607) can0 303##44300FF00FFFF01000FFF000FFFFF000000000000
(1693907130.028410) can0 601##457E3030E06000000000000031F21212000000000
(1693907130.028410) can0 601##457E3030E06000000000000031F21212000000000
(1693907130.028411) can0 101##45705010000000000
(1693907130.028411) can0 101##45705010000000000
(1693907130.044106) can0 010##42D020058029124
(1693907130.044106) can0 010##42D020058029124
(1693907130.059124) can0 303##44400FF00FFFF01000FFF000FFFFF000000000000
(1693907130.059124) can0 303##44400FF00FFFF01000FFF000FFFFF000000000000
(1693907130.078338) can0 601##458E4030E06000000000000031F21212000000000
(1693907130.078338) can0 601##458E4030E06000000000000031F21212000000000
(1693907130.078339) can0 101##45805010000000000
(1693907130.078339) can0 101##45805010000000000
(1693907130.094062) can0 010##42E0200580249A6
(1693907130.094062) can0 010##42E0200580249A6
(1693907130.108650) can0 303##44500FF00FFFF01000FFF000FFFFF000000000000
(1693907130.108650) can0 303##44500FF00FFFF01000FFF000FFFFF000000000000
(1693907130.128612) can0 601##459E4030E06000000000000031F21212000000000
(1693907130.128612) can0 601##459E4030E06000000000000031F21212000000000
(1693907130.128613) can0 101##45905010000000000
(1693907130.128613) can0 101##45905010000000000
(1693907130.128614) can0 201##4114601
(1693907130.128614) can0 201##4114601
(1693907130.144096) can0 010##42F02005802F1C7
(1693907130.144096) can0 010##42F02005802F1C7
(1693907130.159071) can0 303##44600FF00FFFF01000FFF000FFFFF000000000000
(1693907130.159071) can0 303##44600FF00FFFF01000FFF000FFFFF000000000000
(1693907130.178825) can0 601##45AE5030E06000000000000031F21212000000000
(1693907130.178825) can0 601##45AE5030E06000000000000031F21212000000000
(1693907130.178826) can0 101##45A05010000000000
(1693907130.178826) can0 101##45A05010000000000
(1693907130.194085) can0 010##430020058024C55
(1693907130.194085) can0 010##430020058024C55
(1693907130.208654) can0 303##44700FF00FFFF01000FFF000FFFFF000000000000
(1693907130.208654) can0 303##44700FF00FFFF01000FFF000FFFFF000000000000
(1693907130.228815) can0 601##45BE5030E06000000000000031F21212000000000
(1693907130.228815) can0 601##45BE5030E06000000000000031F21212000000000
(1693907130.228816) can0 101##45B05010000000000
(1693907130.228816) can0 101##45B05010000000000
(1693907130.243699) can0 010##43102005802F434
(1693907130.243699) can0 010##43102005802F434
(1693907130.259117) can0 303##44800FF00FFFF01000FFF000FFFFF000000000000
(1693907130.259117) can0 303##44800FF00FFFF01000FFF000FFFFF000000000000
(1693907130.278663) can0 601##45CE6030E06000000000000031F21212000000000
(1693907130.278663) can0 601##45CE6030E06000000000000031F21212000000000
(1693907130.278664) can0 101##45C05010000000000
(1693907130.278664) can0 101##45C05010000000000
(1693907130.294086) can0 010##432020058022CB6
(1693907130.294086) can0 010##432020058022CB6
(1693907130.308631) can0 303##44900FF00FFFF01000FFF000FFFFF000000000000
(1693907130.308631) can0 303##44900FF00FFFF01000FFF000FFFFF000000000000
(1693907130.328641) can0 601##45DE6030E06000000000000031F21212000000000
(1693907130.328641) can0 601##45DE6030E06000000000000031F21212000000000
(1693907130.328642) can0 101##45D05010000000000
(1693907130.328642) can0 101##45D05010000000000
(1693907130.344092) can0 010##4330200580294D7
(1693907130.344092) can0 010##4330200580294D7
(1693907130.359097) can0 303##44A00FF00FFFF01000FFF000FFFFF000000000000
(1693907130.359097) can0 303##44A00FF00FFFF01000FFF000FFFFF000000000000
(1693907130.378788) can0 601##45EE7030E06000000000000031F21212000000000
(1693907130.378788) can0 601##45EE7030E06000000000000031F21212000000000
(1693907130.378789) can0 101##45E05010000000000
(1693907130.378789) can0 101##45E05010000000000
(1693907130.378790) can0 201##4124601
(1693907130.378790) can0 201##4124601
(1693907130.393722) can0 010##434020058028D93
(1693907130.393722) can0 010##434020058028D93
(1693907130.406270) can0 202##505465FB4364A0A000F0019000E000000
(1693907130.406270) can0 202##505465FB4364A0A000F0019000E000000
(1693907130.408682) can0 303##44B00FF00FFFF01000FFF000FFFFF000000000000
(1693907130.408682) can0 303##44B00FF00FFFF01000FFF000FFFFF000000000000
(1693907130.428275) can0 601##45FE7030E06000000000000031F21212000000000
(1693907130.428275) can0 601##45FE7030E06000000000000031F21212000000000
(1693907130.428276) can0 101##45F05010000000000
(1693907130.428276) can0 101##45F05010000000000
(1693907130.445425) can0 010##4350200580235F2
(1693907130.445425) can0 010##4350200580235F2
(1693907130.459091) can0 303##44C00FF00FFFF01000FFF000FFFFF000000000000
(1693907130.459091) can0 303##44C00FF00FFFF01000FFF000FFFFF000000000000
(1693907130.478799) can0 601##460E8030E06000000000000031F21212000000000
(1693907130.478799) can0 601##460E8030E06000000000000031F21212000000000
(1693907130.478800) can0 101##46005010000000000
(1693907130.478800) can0 101##46005010000000000
(1693907130.494129) can0 010##43602005802ED70
(1693907130.494129) can0 010##43602005802ED70
(1693907130.508561) can0 303##44D00FF00FFFF01000FFF000FFFFF000000000000
(1693907130.508561) can0 303##44D00FF00FFFF01000FFF000FFFFF000000000000
(1693907130.528382) can0 601##461E8030E06000000000000031F21212000000000
(1693907130.528382) can0 601##461E8030E06000000000000031F21212000000000
(1693907130.528383) can0 101##46105010000000000
(1693907130.528383) can0 101##46105010000000000
(1693907130.544773) can0 010##437020058025511
(1693907130.544773) can0 010##437020058025511
(1693907130.559146) can0 303##44E00FF00FFFF01000FFF000FFFFF000000000000
(1693907130.559146) can0 303##44E00FF00FFFF01000FFF000FFFFF000000000000
(1693907130.578746) can0 601##462E9030E06000000000000031F21212000000000
(1693907130.578746) can0 601##462E9030E06000000000000031F21212000000000
(1693907130.578747) can0 101##46205010000000000
(1693907130.578747) can0 101##46205010000000000
(1693907130.593844) can0 010##43802005802DFF8
(1693907130.593844) can0 010##43802005802DFF8
(1693907130.608655) can0 303##44F00FF00FFFF01000FFF000FFFFF000000000000
(1693907130.608655) can0 303##44F00FF00FFFF01000FFF000FFFFF000000000000
(1693907130.628332) can0 601##463E9030E06000000000000031F21212000000000
(1693907130.628332) can0 601##463E9030E06000000000000031F21212000000000
(1693907130.628333) can0 101##46305010000000000
(1693907130.628333) can0 101##46305010000000000
(1693907130.628334) can0 201##4134601
(1693907130.628334) can0 201##4134601
(1693907130.643977) can0 010##439020058026799
(1693907130.643977) can0 010##439020058026799
(1693907130.658701) can0 303##45000FF00FFFF01000FFF000FFFFF000000000000
(1693907130.658701) can0 303##45000FF00FFFF01000FFF000FFFFF000000000000
(1693907130.678798) can0 601##464EA030E06000000000000031F21212000000000
(1693907130.678798) can0 601##464EA030E06000000000000031F21212000000000
(1693907130.678799) can0 101##46405010000000000
(1693907130.678799) can0 101##46405010000000000
(1693907130.694170) can0 010##43A02005802BF1B
(1693907130.694170) can0 010##43A02005802BF1B
(1693907130.708658) can0 303##45100FF00FFFF01000FFF000FFFFF000000000000
(1693907130.708658) can0 303##45100FF00FFFF01000FFF000FFFFF000000000000
(1693907130.728626) can0 601##465EA030E06000000000000031F21212000000000
(1693907130.728626) can0 601##465EA030E06000000000000031F21212000000000
(1693907130.728627) can0 101##46505010000000000
(1693907130.728627) can0 101##46505010000000000
(1693907130.744224) can0 010##43B02005802077A
(1693907130.744224) can0 010##43B02005802077A
(1693907130.759079) can0 303##45200FF00FFFF01000FFF000FFFFF000000000000
(1693907130.759079) can0 303##45200FF00FFFF01000FFF000FFFFF000000000000
(1693907130.778532) can0 601##466EB030E06000000000000031F21212000000000
(1693907130.778532) can0 601##466EB030E06000000000000031F21212000000000
(1693907130.778533) can0 101##46605010000000000
(1693907130.778533) can0 101##46605010000000000
(1693907130.793767) can0 010##43C020058021E3E
(1693907130.793767) can0 010##43C020058021E3E
(1693907130.808593) can0 303##45300FF00FFFF01000FFF000FFFFF000000000000
(1693907130.808593) can0 303##45300FF00FFFF01000FFF000FFFFF000000000000
(1693907130.828587) can0 601##467EB030E06000000000000031F21212000000000
(1693907130.828587) can0 601##467EB030E06000000000000031F21212000000000
(1693907130.828589) can0 101##46705010000000000
(1693907130.828589) can0 101##46705010000000000
(1693907130.844133) can0 010##43D02005802A65F
(1693907130.844133) can0 010##43D02005802A65F
(1693907130.858771) can0 303##45400FF00FFFF01000FFF000FFFFF000000000000
(1693907130.858771) can0 303##45400FF00FFFF01000FFF000FFFFF000000000000
(1693907130.878840) can0 601##468EC030E06000000000000031F21212000000000
(1693907130.878840) can0 601##468EC030E06000000000000031F21212000000000
(1693907130.878841) can0 101##46805010000000000
(1693907130.878841) can0 101##46805010000000000
(1693907130.878841) can0 201##4144601
(1693907130.878841) can0 201##4144601
(1693907130.893742) can0 010##43E020058027EDD
(1693907130.893742) can0 010##43E020058027EDD
(1693907130.908608) can0 303##45500FF00FFFF01000FFF000FFFFF000000000000
(1693907130.908608) can0 303##45500FF00FFFF01000FFF000FFFFF000000000000
(1693907130.928576) can0 601##469ED030E06000000000000031F21212000000000
(1693907130.928576) can0 601##469ED030E06000000000000031F21212000000000
(1693907130.928578) can0 101##46905010000000000
(1693907130.928578) can0 101##46905010000000000
(1693907130.943645) can0 010##43F02005802C6BC
(1693907130.943645) can0 010##43F02005802C6BC
(1693907130.958639) can0 303##45600FF00FFFF01000FFF000FFFFF000000000000
(1693907130.958639) can0 303##45600FF00FFFF01000FFF000FFFFF000000000000
(1693907130.978833) can0 601##46AED030E06000000000000031F21212000000000
(1693907130.978833) can0 601##46AED030E06000000000000031F21212000000000
(1693907130.978834) can0 101##46A05010000000000
(1693907130.978834) can0 101##46A05010000000000
(1693907130.993837) can0 010##44002005802C834
(1693907130.993837) can0 010##44002005802C834
(1693907131.008652) can0 303##45700FF00FFFF01000FFF000FFFFF000000000000
(1693907131.008652) can0 303##45700FF00FFFF01000FFF000FFFFF000000000000
(1693907131.028420) can0 601##46BEE030E06000000000000031F21212000000000
(1693907131.028420) can0 601##46BEE030E06000000000000031F21212000000000
(1693907131.028422) can0 101##46B05010000000000
(1693907131.028422) can0 101##46B05010000000000
(1693907131.043977) can0 010##441020058027055
(1693907131.043977) can0 010##441020058027055
(1693907131.059105) can0 303##45800FF00FFFF01000FFF000FFFFF000000000000
(1693907131.059105) can0 303##45800FF00FFFF01000FFF000FFFFF000000000000
(1693907131.078836) can0 601##46CEE030E06000000000000031F21212000000000
(1693907131.078836) can0 601##46CEE030E06000000000000031F21212000000000
(1693907131.078837) can0 101##46C05010000000000
(1693907131.078837) can0 101##46C05010000000000
(1693907131.094155) can0 010##44202005802A8D7
(1693907131.094155) can0 010##44202005802A8D7
(1693907131.108638) can0 303##45900FF00FFFF01000FFF000FFFFF000000000000
(1693907131.108638) can0 303##45900FF00FFFF01000FFF000FFFFF000000000000
(1693907131.128607) can0 601##46DEF030E06000000000000031F21212000000000
(1693907131.128607) can0 601##46DEF030E06000000000000031F21212000000000
(1693907131.128609) can0 101##46D05010000000000
(1693907131.128609) can0 101##46D05010000000000
(1693907131.128610) can0 201##4154601
(1693907131.128610) can0 201##4154601
(1693907131.144270) can0 010##4430200580210B6
(1693907131.144270) can0 010##4430200580210B6
(1693907131.158769) can0 303##45A00FF00FFFF01000FFF000FFFFF000000000000
(1693907131.158769) can0 303##45A00FF00FFFF01000FFF000FFFFF000000000000
(1693907131.178858) can0 601##46EEF030E06000000000000031F21212000000000
(1693907131.178858) can0 601##46EEF030E06000000000000031F21212000000000
(1693907131.178859) can0 101##46E05010000000000
(1693907131.178859) can0 101##46E05010000000000
(1693907131.193851) can0 010##4440200580209F2
(1693907131.193851) can0 010##4440200580209F2
(1693907131.208659) can0 303##45B00FF00FFFF01000FFF000FFFFF000000000000
(1693907131.208659) can0 303##45B00FF00FFFF01000FFF000FFFFF000000000000
(1693907131.228890) can0 601##46FF0030E06000000000000031F21212000000000
(1693907131.228890) can0 601##46FF0030E06000000000000031F21212000000000
(1693907131.228891) can0 101##46F05010000000000
(1693907131.228891) can0 101##46F05010000000000
(1693907131.244237) can0 010##44502005802B193
(1693907131.244237) can0 010##44502005802B193
(1693907131.259067) can0 303##45C00FF00FFFF01000FFF000FFFFF000000000000
(1693907131.259067) can0 303##45C00FF00FFFF01000FFF000FFFFF000000000000
(1693907131.278814) can0 601##470F1030E06000000000000031F21212000000000
(1693907131.278814) can0 601##470F1030E06000000000000031F21212000000000
(1693907131.278815) can0 101##47005010000000000
(1693907131.278815) can0 101##47005010000000000
(1693907131.294229) can0 010##446020058026911
(1693907131.294229) can0 010##446020058026911
(1693907131.308644) can0 303##45D00FF00FFFF01000FFF000FFFFF000000000000
(1693907131.308644) can0 303##45D00FF00FFFF01000FFF000FFFFF000000000000
(1693907131.328369) can0 601##471F1030E06000000000000031F21212000000000
(1693907131.328369) can0 601##471F1030E06000000000000031F21212000000000
(1693907131.328370) can0 101##47105010000000000
(1693907131.328370) can0 101##47105010000000000
(1693907131.343455) can0 010##44702005802D170
(1693907131.343455) can0 010##44702005802D170
(1693907131.358751) can0 303##45E00FF00FFFF01000FFF000FFFFF000000000000
(1693907131.358751) can0 303##45E00FF00FFFF01000FFF000FFFFF000000000000
(1693907131.378497) can0 601##472F1030E06000000000000031F21212000000000
(1693907131.378497) can0 601##472F1030E06000000000000031F21212000000000
(1693907131.378498) can0 101##47205010000000000
(1693907131.378498) can0 101##47205010000000000
(1693907131.378498) can0 201##4164601
(1693907131.378498) can0 201##4164601
(1693907131.393852) can0 010##448020058025B99
(1693907131.393852) can0 010##448020058025B99
(1693907131.406846) can0 202##506465FB446606C000D0019000E000001
(1693907131.406846) can0 202##506465FB446606C000D0019000E000001
(1693907131.408612) can0 303##45F00FF00FFFF01000FFF000FFFFF000000000000
(1693907131.408612) can0 303##45F00FF00FFFF01000FFF000FFFFF000000000000
(1693907131.428368) can0 601##473F1030E06000000000000031F21212000000000
(1693907131.428368) can0 601##473F1030E06000000000000031F21212000000000
(1693907131.428370) can0 101##47305010000000000
(1693907131.428370) can0 101##47305010000000000
(1693907131.443896) can0 010##44902005802E3F8
(1693907131.443896) can0 010##44902005802E3F8
(1693907131.459061) can0 303##46000FF00FFFF01000FFF000FFFFF000000000000
(1693907131.459061) can0 303##46000FF00FFFF01000FFF000FFFFF000000000000
(1693907131.478428) can0 601##474F1030E06000000000000031F21212000000000
(1693907131.478428) can0 601##474F1030E06000000000000031F21212000000000
(1693907131.478430) can0 101##47405010000000000
(1693907131.478430) can0 101##47405010000000000
(1693907131.494222) can0 010##44A020058023B7A
(1693907131.494222) can0 010##44A020058023B7A
(1693907131.508643) can0 303##46100FF00FFFF01000FFF000FFFFF000000000000
(1693907131.508643) can0 303##46100FF00FFFF01000FFF000FFFFF000000000000
(1693907131.528461) can0 601##475F1030E06000000000000031F21212000000000
(1693907131.528461) can0 601##475F1030E06000000000000031F21212000000000
(1693907131.528463) can0 101##47505010000000000
(1693907131.528463) can0 101##47505010000000000
(1693907131.543832) can0 010##44B02005802831B
(1693907131.543832) can0 010##44B02005802831B
(1693907131.559105) can0 303##46200FF00FFFF01000FFF000FFFFF000000000000
(1693907131.559105) can0 303##46200FF00FFFF01000FFF000FFFFF000000000000
(1693907131.578466) can0 601##476F1030E06000000000000031F21212000000000
(1693907131.578466) can0 601##476F1030E06000000000000031F21212000000000
(1693907131.578467) can0 101##47605010000000000
(1693907131.578467) can0 101##47605010000000000
(1693907131.593813) can0 010##44C020058029A5F
(1693907131.593813) can0 010##44C020058029A5F
(1693907131.608666) can0 303##46300FF00FFFF01000FFF000FFFFF000000000000
(1693907131.608666) can0 303##46300FF00FFFF01000FFF000FFFFF000000000000
(1693907131.628418) can0 601##477F1030E06000000000000031F21212000000000
(1693907131.628418) can0 601##477F1030E06000000000000031F21212000000000
(1693907131.628420) can0 101##47705010000000000
(1693907131.628420) can0 101##47705010000000000
(1693907131.628420) can0 201##4174601
(1693907131.628420) can0 201##4174601
(1693907131.643831) can0 010##44D02005802223E
(1693907131.643831) can0 010##44D02005802223E
(1693907131.658884) can0 303##46400FF00FFFF01000FFF000FFFFF000000000000
(1693907131.658884) can0 303##46400FF00FFFF01000FFF000FFFFF000000000000
(1693907131.678878) can0 601##478F1030E06000000000000031F21212000000000
(1693907131.678878) can0 601##478F1030E06000000000000031F21212000000000
(1693907131.678880) can0 101##47805010000000000
(1693907131.678880) can0 101##47805010000000000
(1693907131.694264) can0 010##44E02005802FABC
(1693907131.694264) can0 010##44E02005802FABC
(1693907131.708628) can0 303##46500FF00FFFF01000FFF000FFFFF000000000000
(1693907131.708628) can0 303##46500FF00FFFF01000FFF000FFFFF000000000000
(1693907131.728432) can0 601##479F1030E06000000000000031F21212000000000
(1693907131.728432) can0 601##479F1030E06000000000000031F21212000000000
(1693907131.728434) can0 101##47905010000000000
(1693907131.728434) can0 101##47905010000000000
(1693907131.743840) can0 010##44F0200580242DD
(1693907131.743840) can0 010##44F0200580242DD
(1693907131.758593) can0 303##46600FF00FFFF01000FFF000FFFFF000000000000
(1693907131.758593) can0 303##46600FF00FFFF01000FFF000FFFFF000000000000
(1693907131.778430) can0 601##47AF1030E06000000000000031F21212000000000
(1693907131.778430) can0 601##47AF1030E06000000000000031F21212000000000
(1693907131.778431) can0 101##47A05010000000000
(1693907131.778431) can0 101##47A05010000000000
(1693907131.794257) can0 010##45002005802FF4F
(1693907131.794257) can0 010##45002005802FF4F
(1693907131.808656) can0 303##46700FF00FFFF01000FFF000FFFFF000000000000
(1693907131.808656) can0 303##46700FF00FFFF01000FFF000FFFFF000000000000
(1693907131.828623) can0 601##47BF1030E06000000000000031F21212000000000
(1693907131.828623) can0 601##47BF1030E06000000000000031F21212000000000
(1693907131.828624) can0 101##47B05010000000000
(1693907131.828624) can0 101##47B05010000000000
(1693907131.843834) can0 010##45102005802472E
(1693907131.843834) can0 010##45102005802472E
(1693907131.859104) can0 303##46800FF00FFFF01000FFF000FFFFF000000000000
(1693907131.859104) can0 303##46800FF00FFFF01000FFF000FFFFF000000000000
(1693907131.878416) can0 601##47CF1030E06000000000000031F21212000000000
(1693907131.878416) can0 601##47CF1030E06000000000000031F21212000000000
(1693907131.878417) can0 101##47C05010000000000
(1693907131.878417) can0 101##47C05010000000000
(1693907131.878418) can0 201##4184601
(1693907131.878418) can0 201##4184601
(1693907131.894262) can0 010##452020058029FAC
(1693907131.894262) can0 010##452020058029FAC
(1693907131.908650) can0 303##46900FF00FFFF01000FFF000FFFFF000000000000
(1693907131.908650) can0 303##46900FF00FFFF01000FFF000FFFFF000000000000
(1693907131.928467) can0 601##47DF1030E06000000000000031F21212000000000
(1693907131.928467) can0 601##47DF1030E06000000000000031F21212000000000
(1693907131.928469) can0 101##47D05010000000000
(1693907131.928469) can0 101##47D05010000000000
(1693907131.943936) can0 010##4530200580227CD
(1693907131.943936) can0 010##4530200580227CD
(1693907131.959076) can0 303##46A00FF00FFFF01000FFF000FFFFF000000000000
(1693907131.959076) can0 303##46A00FF00FFFF01000FFF000FFFFF000000000000
(1693907131.978590) can0 601##47EF1030E06000000000000031F21212000000000
(1693907131.978590) can0 601##47EF1030E06000000000000031F21212000000000
(1693907131.978591) can0 101##47E05010000000000
(1693907131.978591) can0 101##47E05010000000000
(1693907131.993870) can0 010##454020058023E89
(1693907131.993870) can0 010##454020058023E89
(1693907132.008679) can0 303##46B00FF00FFFF01000FFF000FFFFF000000000000
(1693907132.008679) can0 303##46B00FF00FFFF01000FFF000FFFFF000000000000
(1693907132.028645) can0 601##47FF1030E06000000000000031F21212000000000
(1693907132.028645) can0 601##47FF1030E06000000000000031F21212000000000
(1693907132.028646) can0 101##47F05010000000000
(1693907132.028646) can0 101##47F05010000000000
(1693907132.044274) can0 010##4550200580286E8
(1693907132.044274) can0 010##4550200580286E8
(1693907132.059030) can0 303##46C00FF00FFFF01000FFF000FFFFF000000000000
(1693907132.059030) can0 303##46C00FF00FFFF01000FFF000FFFFF000000000000
(1693907132.078760) can0 601##480F1030E06000000000000031F21212000000000
(1693907132.078760) can0 601##480F1030E06000000000000031F21212000000000
(1693907132.078761) can0 101##48005010000000000
(1693907132.078761) can0 101##48005010000000000
(1693907132.093862) can0 010##456020058025E6A
(1693907132.093862) can0 010##456020058025E6A
(1693907132.108653) can0 303##46D00FF00FFFF01000FFF000FFFFF000000000000
(1693907132.108653) can0 303##46D00FF00FFFF01000FFF000FFFFF000000000000
(1693907132.128627) can0 601##481F1030E06000000000000031F21212000000000
(1693907132.128627) can0 601##481F1030E06000000000000031F21212000000000
(1693907132.128629) can0 101##48105010000000000
(1693907132.128629) can0 101##48105010000000000
(1693907132.128630) can0 201##4194601
(1693907132.128630) can0 201##4194601
(1693907132.144366) can0 010##45702005802E60B
(1693907132.144366) can0 010##45702005802E60B
(1693907132.159031) can0 303##46E00FF00FFFF01000FFF000FFFFF000000000000
(1693907132.159031) can0 303##46E00FF00FFFF01000FFF000FFFFF000000000000
(1693907132.178916) can0 601##482F1030E06000000000000031F21212000000000
(1693907132.178916) can0 601##482F1030E06000000000000031F21212000000000
(1693907132.178917) can0 101##48205010000000000
(1693907132.178917) can0 101##48205010000000000
(1693907132.193999) can0 010##458020058026CE2
(1693907132.193999) can0 010##458020058026CE2
(1693907132.208624) can0 303##46F00FF00FFFF01000FFF000FFFFF000000000000
(1693907132.208624) can0 303##46F00FF00FFFF01000FFF000FFFFF000000000000
(1693907132.228412) can0 601##483F1030E06000000000000031F21212000000000
(1693907132.228412) can0 601##483F1030E06000000000000031F21212000000000
(1693907132.228414) can0 101##48305010000000000
(1693907132.228414) can0 101##48305010000000000
(1693907132.243946) can0 010##45902005802D483
(1693907132.243946) can0 010##45902005802D483
(1693907132.258673) can0 303##47000FF00FFFF01000FFF000FFFFF000000000000
(1693907132.258673) can0 303##47000FF00FFFF01000FFF000FFFFF000000000000
(1693907132.278908) can0 601##484F1030E06000000000000031F21212000000000
(1693907132.278908) can0 601##484F1030E06000000000000031F21212000000000
(1693907132.278909) can0 101##48405010000000000
(1693907132.278909) can0 101##48405010000000000
(1693907132.293945) can0 010##45A020058020C01
(1693907132.293945) can0 010##45A020058020C01
(1693907132.308686) can0 303##47100FF00FFFF01000FFF000FFFFF000000000000
(1693907132.308686) can0 303##47100FF00FFFF01000FFF000FFFFF000000000000
(1693907132.328638) can0 601##485F1030E06000000000000031F21212000000000
(1693907132.328638) can0 601##485F1030E06000000000000031F21212000000000
(1693907132.328640) can0 101##48505010000000000
(1693907132.328640) can0 101##48505010000000000
(1693907132.344310) can0 010##45B02005802B460
(1693907132.344310) can0 010##45B02005802B460
(1693907132.359076) can0 303##47200FF00FFFF01000FFF000FFFFF000000000000
(1693907132.359076) can0 303##47200FF00FFFF01000FFF000FFFFF000000000000
(1693907132.378452) can0 601##486F1030E06000000000000031F21212000000000
(1693907132.378452) can0 601##486F1030E06000000000000031F21212000000000
(1693907132.378453) can0 101##48605010000000000
(1693907132.378453) can0 101##48605010000000000
(1693907132.378454) can0 201##41A4601
(1693907132.378454) can0 201##41A4601
(1693907132.393801) can0 010##45C02005802AD24
(1693907132.393801) can0 010##45C02005802AD24
(1693907132.407331) can0 202##507465FB4466006000B0019000E000001
(1693907132.407331) can0 202##507465FB4466006000B0019000E000001
(1693907132.408634) can0 303##47300FF00FFFF01000FFF000FFFFF000000000000
(1693907132.408634) can0 303##47300FF00FFFF01000FFF000FFFFF000000000000
(1693907132.428457) can0 601##487F1030E06000000000000031F21212000000000
(1693907132.428457) can0 601##487F1030E06000000000000031F21212000000000
(1693907132.428459) can0 101##48705010000000000
(1693907132.428459) can0 101##48705010000000000
(1693907132.444039) can0 010##45D020058021545
(1693907132.444039) can0 010##45D020058021545
(1693907132.458649) can0 303##47400FF00FFFF01000FFF000FFFFF000000000000
(1693907132.458649) can0 303##47400FF00FFFF01000FFF000FFFFF000000000000
(1693907132.478528) can0 601##488F1030E06000000000000031F21212000000000
(1693907132.478528) can0 601##488F1030E06000000000000031F21212000000000
(1693907132.478530) can0 101##48805010000000000
(1693907132.478530) can0 101##48805010000000000
(1693907132.493846) can0 010##45E02005802CDC7
(1693907132.493846) can0 010##45E02005802CDC7
(1693907132.508640) can0 303##47500FF00FFFF01000FFF000FFFFF000000000000
(1693907132.508640) can0 303##47500FF00FFFF01000FFF000FFFFF000000000000
(1693907132.528569) can0 601##489F1030E06000000000000031F21212000000000
(1693907132.528569) can0 601##489F1030E06000000000000031F21212000000000
(1693907132.528570) can0 101##48905010000000000
(1693907132.528570) can0 101##48905010000000000
(1693907132.543864) can0 010##45F0200580275A6
(1693907132.543864) can0 010##45F0200580275A6
(1693907132.558650) can0 303##47600FF00FFFF01000FFF000FFFFF000000000000
(1693907132.558650) can0 303##47600FF00FFFF01000FFF000FFFFF000000000000
(1693907132.578530) can0 601##48AF1030E06000000000000031F21212000000000
(1693907132.578530) can0 601##48AF1030E06000000000000031F21212000000000
(1693907132.578532) can0 101##48A05010000000000
(1693907132.578532) can0 101##48A05010000000000
(1693907132.593967) can0 010##46002005802A6C2
(1693907132.593967) can0 010##46002005802A6C2
(1693907132.608616) can0 303##47700FF00FFFF01000FFF000FFFFF000000000000
(1693907132.608616) can0 303##47700FF00FFFF01000FFF000FFFFF000000000000
(1693907132.628959) can0 601##48BF1030E06000000000000031F21212000000000
(1693907132.628959) can0 601##48BF1030E06000000000000031F21212000000000
(1693907132.628960) can0 101##48B05010000000000
(1693907132.628960) can0 101##48B05010000000000
(1693907132.628961) can0 201##41B4601
(1693907132.628961) can0 201##41B4601
(1693907132.643649) can0 010##461020058021EA3
(1693907132.643649) can0 010##461020058021EA3
(1693907132.658895) can0 303##47800FF00FFFF01000FFF000FFFFF000000000000
(1693907132.658895) can0 303##47800FF00FFFF01000FFF000FFFFF000000000000
(1693907132.678938) can0 601##48CF1030E06000000000000031F21212000000000
(1693907132.678938) can0 601##48CF1030E06000000000000031F21212000000000
(1693907132.678939) can0 101##48C05010000000000
(1693907132.678939) can0 101##48C05010000000000
(1693907132.694288) can0 010##46202005802C621
(1693907132.694288) can0 010##46202005802C621
(1693907132.708600) can0 303##47900FF00FFFF01000FFF000FFFFF000000000000
(1693907132.708600) can0 303##47900FF00FFFF01000FFF000FFFFF000000000000
(1693907132.728620) can0 601##48DF1030E06000000000000031F20212000000000
(1693907132.728620) can0 601##48DF1030E06000000000000031F20212000000000
(1693907132.728622) can0 101##48D05010000000000
(1693907132.728622) can0 101##48D05010000000000
(1693907132.743894) can0 010##463020058027E40
(1693907132.743894) can0 010##463020058027E40
(1693907132.759057) can0 303##47A00FF00FFFF01000FFF000FFFFF000000000000
(1693907132.759057) can0 303##47A00FF00FFFF01000FFF000FFFFF000000000000
(1693907132.778933) can0 601##48EF1030E06000000000000031F20212000000000
(1693907132.778933) can0 601##48EF1030E06000000000000031F20212000000000
(1693907132.778935) can0 101##48E05010000000000
(1693907132.778935) can0 101##48E05010000000000
(1693907132.793903) can0 010##464020058026704
(1693907132.793903) can0 010##464020058026704
(1693907132.808684) can0 303##47B00FF00FFFF01000FFF000FFFFF000000000000
(1693907132.808684) can0 303##47B00FF00FFFF01000FFF000FFFFF000000000000
(1693907132.828651) can0 601##48FF1030E06000000000000031F20212000000000
(1693907132.828651) can0 601##48FF1030E06000000000000031F20212000000000
(1693907132.828653) can0 101##48F05010000000000
(1693907132.828653) can0 101##48F05010000000000
(1693907132.843605) can0 010##46502005802DF65
(1693907132.843605) can0 010##46502005802DF65
(1693907132.858933) can0 303##47C00FF00FFFF01000FFF000FFFFF000000000000
(1693907132.858933) can0 303##47C00FF00FFFF01000FFF000FFFFF000000000000
(1693907132.878570) can0 601##490F1030E06000000000000031F20212000000000
(1693907132.878570) can0 601##490F1030E06000000000000031F20212000000000
(1693907132.878571) can0 101##49005010000000000
(1693907132.878571) can0 101##49005010000000000
(1693907132.878571) can0 201##41C4601
(1693907132.878571) can0 201##41C4601
(1693907132.893908) can0 010##4660200580207E7
(1693907132.893908) can0 010##4660200580207E7
(1693907132.908604) can0 303##47D00FF00FFFF01000FFF000FFFFF000000000000
(1693907132.908604) can0 303##47D00FF00FFFF01000FFF000FFFFF000000000000
(1693907132.928628) can0 601##491F1030E06000000000000031F20212000000000
(1693907132.928628) can0 601##491F1030E06000000000000031F20212000000000
(1693907132.928629) can0 101##49105010000000000
(1693907132.928629) can0 101##49105010000000000
(1693907132.943915) can0 010##46702005802BF86
(1693907132.943915) can0 010##46702005802BF86
(1693907132.959073) can0 303##47E00FF00FFFF01000FFF000FFFFF000000000000
(1693907132.959073) can0 303##47E00FF00FFFF01000FFF000FFFFF000000000000
(1693907132.978948) can0 601##492F1030E06000000000000031F20212000000000
(1693907132.978948) can0 601##492F1030E06000000000000031F20212000000000
(1693907132.978949) can0 101##49205010000000000
(1693907132.978949) can0 101##49205010000000000
(1693907132.994578) can0 010##46802005802356F
(1693907132.994578) can0 010##46802005802356F
(1693907133.008637) can0 303##47F00FF00FFFF01000FFF000FFFFF000000000000
(1693907133.008637) can0 303##47F00FF00FFFF01000FFF000FFFFF000000000000
(1693907133.028497) can0 601##493F1030E06000000000000031F20212000000000
(1693907133.028497) can0 601##493F1030E06000000000000031F20212000000000
(1693907133.028499) can0 101##49305010000000000
(1693907133.028499) can0 101##49305010000000000
(1693907133.043945) can0 010##469020058028D0E
(1693907133.043945) can0 010##469020058028D0E
(1693907133.058716) can0 303##48000FF00FFFF01000FFF000FFFFF000000000000
(1693907133.058716) can0 303##48000FF00FFFF01000FFF000FFFFF000000000000
(1693907133.078919) can0 601##494F1030E06000000000000031F20212000000000
(1693907133.078919) can0 601##494F1030E06000000000000031F20212000000000
(1693907133.078921) can0 101##49405010000000000
(1693907133.078921) can0 101##49405010000000000
(1693907133.094359) can0 010##46A02005802558C
(1693907133.094359) can0 010##46A02005802558C
(1693907133.108603) can0 303##48100FF00FFFF01000FFF000FFFFF000000000000
(1693907133.108603) can0 303##48100FF00FFFF01000FFF000FFFFF000000000000
(1693907133.128641) can0 601##495F1030E06000000000000031F20212000000000
(1693907133.128641) can0 601##495F1030E06000000000000031F20212000000000
(1693907133.128642) can0 101##49505020000000000
(1693907133.128642) can0 101##49505020000000000
(1693907133.128642) can0 201##41D4601
(1693907133.128642) can0 201##41D4601
(1693907133.143950) can0 010##46B02005802EDED
(1693907133.143950) can0 010##46B02005802EDED
(1693907133.158663) can0 303##48200FF00FFFF01000FFF000FFFFF000000000000
(1693907133.158663) can0 303##48200FF00FFFF01000FFF000FFFFF000000000000
(1693907133.178864) can0 601##496F1030E06000000000000031F20212000000000
(1693907133.178864) can0 601##496F1030E06000000000000031F20212000000000
(1693907133.178865) can0 101##49605020000000000
(1693907133.178865) can0 101##49605020000000000
(1693907133.194310) can0 010##46C02005802F4A9
(1693907133.194310) can0 010##46C02005802F4A9
(1693907133.208677) can0 303##48300FF00FFFF01000FFF000FFFFF000000000000
(1693907133.208677) can0 303##48300FF00FFFF01000FFF000FFFFF000000000000
(1693907133.228638) can0 601##497EA030E04000000000000031F20212000000000
(1693907133.228638) can0 601##497EA030E04000000000000031F20212000000000
(1693907133.228639) can0 101##49705020000000000
(1693907133.228639) can0 101##49705020000000000
(1693907133.245071) can0 010##46D020058024CC8
(1693907133.245071) can0 010##46D020058024CC8
(1693907133.259041) can0 303##48400FF00FFFF01000FFF000FFFFF000000000000
(1693907133.259041) can0 303##48400FF00FFFF01000FFF000FFFFF000000000000
(1693907133.278537) can0 601##498DF030E04000000000000031F20212000000000
(1693907133.278537) can0 601##498DF030E04000000000000031F20212000000000
(1693907133.278538) can0 101##49805020000000000
(1693907133.278538) can0 101##49805020000000000
(1693907133.293998) can0 010##46E02005802944A
(1693907133.293998) can0 010##46E02005802944A
(1693907133.308676) can0 303##48500FF00FFFF01000FFF000FFFFF000000000000
(1693907133.308676) can0 303##48500FF00FFFF01000FFF000FFFFF000000000000
(1693907133.328662) can0 601##499DB030E04000000000000031F20212000000000
(1693907133.328662) can0 601##499DB030E04000000000000031F20212000000000
(1693907133.328663) can0 101##49905020000000000
(1693907133.328663) can0 101##49905020000000000
(1693907133.343991) can0 010##46F020058022C2B
(1693907133.343991) can0 010##46F020058022C2B
(1693907133.358594) can0 303##48600FF00FFFF01000FFF000FFFFF000000000000
(1693907133.358594) can0 303##48600FF00FFFF01000FFF000FFFFF000000000000
(1693907133.378517) can0 601##49ADB030E04000000000000031F20212000000000
(1693907133.378517) can0 601##49ADB030E04000000000000031F20212000000000
(1693907133.378518) can0 101##49A05020000000000
(1693907133.378518) can0 101##49A05020000000000
(1693907133.378519) can0 201##41E4601
(1693907133.378519) can0 201##41E4601
(1693907133.393690) can0 010##4700200580291B9
(1693907133.393690) can0 010##4700200580291B9
(1693907133.407593) can0 202##508465FB4445E38001F0019000E000000
(1693907133.407593) can0 202##508465FB4445E38001F0019000E000000
(1693907133.408594) can0 303##48700FF00FFFF01000FFF000FFFFF000000000000
(1693907133.408594) can0 303##48700FF00FFFF01000FFF000FFFFF000000000000
(1693907133.428589) can0 601##49BDB030E04000000000000031F20212000000000
(1693907133.428589) can0 601##49BDB030E04000000000000031F20212000000000
(1693907133.428590) can0 101##49B05020000000000
(1693907133.428590) can0 101##49B05020000000000
(1693907133.444099) can0 010##4710200580229D8
(1693907133.444099) can0 010##4710200580229D8
(1693907133.458668) can0 303##48800FF00FFFF01000FFF000FFFFF000000000000
(1693907133.458668) can0 303##48800FF00FFFF01000FFF000FFFFF000000000000
(1693907133.478567) can0 601##49CDB030E04000000000000031F20212000000000
(1693907133.478567) can0 601##49CDB030E04000000000000031F20212000000000
(1693907133.478568) can0 101##49C05020000000000
(1693907133.478568) can0 101##49C05020000000000
(1693907133.493988) can0 010##47202005802F15A
(1693907133.493988) can0 010##47202005802F15A
(1693907133.508693) can0 303##48900FF00FFFF01000FFF000FFFFF000000000000
(1693907133.508693) can0 303##48900FF00FFFF01000FFF000FFFFF000000000000
(1693907133.528579) can0 601##49DDB030E04000000000000031F20212000000000
(1693907133.528579) can0 601##49DDB030E04000000000000031F20212000000000
(1693907133.528581) can0 101##49D05020000000000
(1693907133.528581) can0 101##49D05020000000000
(1693907133.544650) can0 010##47302005802493B
(1693907133.544650) can0 010##47302005802493B
(1693907133.558672) can0 303##48A00FF00FFFF01000FFF000FFFFF000000000000
(1693907133.558672) can0 303##48A00FF00FFFF01000FFF000FFFFF000000000000
(1693907133.578676) can0 601##49EDB030E04000000000000031F20212000000000
(1693907133.578676) can0 601##49EDB030E04000000000000031F20212000000000
(1693907133.578677) can0 101##49E05020000000000
(1693907133.578677) can0 101##49E05020000000000
(1693907133.594177) can0 010##47402005802507F
(1693907133.594177) can0 010##47402005802507F
(1693907133.608613) can0 303##48B00FF00FFFF01000FFF000FFFFF000000000000
(1693907133.608613) can0 303##48B00FF00FFFF01000FFF000FFFFF000000000000
(1693907133.628623) can0 601##49FDB030E04000000000000031F20212000000000
(1693907133.628623) can0 601##49FDB030E04000000000000031F20212000000000
(1693907133.628625) can0 101##49F05020000000000
(1693907133.628625) can0 101##49F05020000000000
(1693907133.628625) can0 201##41F4601
(1693907133.628625) can0 201##41F4601
(1693907133.644016) can0 010##47502005802E81E
(1693907133.644016) can0 010##47502005802E81E
(1693907133.658721) can0 303##48C00FF00FFFF01000FFF000FFFFF000000000000
(1693907133.658721) can0 303##48C00FF00FFFF01000FFF000FFFFF000000000000
(1693907133.678604) can0 601##4A0DB030E04000000000000031F20212000000000
(1693907133.678604) can0 601##4A0DB030E04000000000000031F20212000000000
(1693907133.678605) can0 101##4A005020000000000
(1693907133.678605) can0 101##4A005020000000000
(1693907133.694296) can0 010##47602005802309C
(1693907133.694296) can0 010##47602005802309C
(1693907133.708613) can0 303##48D00FF00FFFF01000FFF000FFFFF000000000000
(1693907133.708613) can0 303##48D00FF00FFFF01000FFF000FFFFF000000000000
(1693907133.728604) can0 601##4A1DB030E04000000000000031F20212000000000
(1693907133.728604) can0 601##4A1DB030E04000000000000031F20212000000000
(1693907133.728605) can0 101##4A105020000000000
(1693907133.728605) can0 101##4A105020000000000
(1693907133.744473) can0 010##4770200580288FD
(1693907133.744473) can0 010##4770200580288FD
(1693907133.758664) can0 303##48E00FF00FFFF01000FFF000FFFFF000000000000
(1693907133.758664) can0 303##48E00FF00FFFF01000FFF000FFFFF000000000000
(1693907133.778587) can0 601##4A2DB030E04000000000000031F20212000000000
(1693907133.778587) can0 601##4A2DB030E04000000000000031F20212000000000
(1693907133.778588) can0 101##4A205020000000000
(1693907133.778588) can0 101##4A205020000000000
(1693907133.794018) can0 010##478020058020214
(1693907133.794018) can0 010##478020058020214
(1693907133.808607) can0 303##48F00FF00FFFF01000FFF000FFFFF000000000000
(1693907133.808607) can0 303##48F00FF00FFFF01000FFF000FFFFF000000000000
(1693907133.828627) can0 601##4A3DB030E04000000000000031F20212000000000
(1693907133.828627) can0 601##4A3DB030E04000000000000031F20212000000000
(1693907133.828628) can0 101##4A305020000000000
(1693907133.828628) can0 101##4A305020000000000
(1693907133.844501) can0 010##47902005802BA75
(1693907133.844501) can0 010##47902005802BA75
(1693907133.858607) can0 303##49000FF00FFFF01000FFF000FFFFF000000000000
(1693907133.858607) can0 303##49000FF00FFFF01000FFF000FFFFF000000000000
(1693907133.879014) can0 601##4A4DB030E04000000000000031F20212000000000
(1693907133.879014) can0 601##4A4DB030E04000000000000031F20212000000000
(1693907133.879015) can0 101##4A405020000000000
(1693907133.879015) can0 101##4A405020000000000
(1693907133.879016) can0 201##4204601
(1693907133.879016) can0 201##4204601
(1693907133.894027) can0 010##47A0200580262F7
(1693907133.894027) can0 010##47A0200580262F7
(1693907133.908603) can0 303##49100FF00FFFF01000FFF000FFFFF000000000000
(1693907133.908603) can0 303##49100FF00FFFF01000FFF000FFFFF000000000000
(1693907133.928625) can0 601##4A5DB030E04000000000000031F20212000000000
(1693907133.928625) can0 601##4A5DB030E04000000000000031F20212000000000
(1693907133.928626) can0 101##4A505020000000000
(1693907133.928626) can0 101##4A505020000000000
(1693907133.944062) can0 010##47B02005802DA96
(1693907133.944062) can0 010##47B02005802DA96
(1693907133.958606) can0 303##49200FF00FFFF01000FFF000FFFFF000000000000
(1693907133.958606) can0 303##49200FF00FFFF01000FFF000FFFFF000000000000
(1693907133.978583) can0 601##4A6DB030E04000000000000031F20212000000000
(1693907133.978583) can0 601##4A6DB030E04000000000000031F20212000000000
(1693907133.978584) can0 101##4A605020000000000
(1693907133.978584) can0 101##4A605020000000000
(1693907133.994020) can0 010##47C02005802C3D2
(1693907133.994020) can0 010##47C02005802C3D2
(1693907134.008614) can0 303##49300FF00FFFF01000FFF000FFFFF000000000000
(1693907134.008614) can0 303##49300FF00FFFF01000FFF000FFFFF000000000000
(1693907134.028652) can0 601##4A7DB030E04000000000000031F20212000000000
(1693907134.028652) can0 601##4A7DB030E04000000000000031F20212000000000
(1693907134.028654) can0 101##4A705020000000000
(1693907134.028654) can0 101##4A705020000000000
(1693907134.044031) can0 010##47D020058027BB3
(1693907134.044031) can0 010##47D020058027BB3
(1693907134.058669) can0 303##49400FF00FFFF01000FFF000FFFFF000000000000
(1693907134.058669) can0 303##49400FF00FFFF01000FFF000FFFFF000000000000
(1693907134.079029) can0 601##4A8DB030E04000000000000031F20212000000000
(1693907134.079029) can0 601##4A8DB030E04000000000000031F20212000000000
(1693907134.079031) can0 101##4A805020000000000
(1693907134.079031) can0 101##4A805020000000000
(1693907134.094557) can0 010##47E02005802A331
(1693907134.094557) can0 010##47E02005802A331
(1693907134.108604) can0 303##49500FF00FFFF01000FFF000FFFFF000000000000
(1693907134.108604) can0 303##49500FF00FFFF01000FFF000FFFFF000000000000
(1693907134.128636) can0 601##4A9DB030E04000000000000031F20212000000000
(1693907134.128636) can0 601##4A9DB030E04000000000000031F20212000000000
(1693907134.128637) can0 101##4A905020000000000
(1693907134.128637) can0 101##4A905020000000000
(1693907134.128638) can0 201##4214601
(1693907134.128638) can0 201##4214601
(1693907134.144531) can0 010##47F020058021B50
(1693907134.144531) can0 010##47F020058021B50
(1693907134.158659) can0 303##49600FF00FFFF01000FFF000FFFFF000000000000
(1693907134.158659) can0 303##49600FF00FFFF01000FFF000FFFFF000000000000
(1693907134.179047) can0 601##4AADB030E04000000000000031F20212000000000
(1693907134.179047) can0 601##4AADB030E04000000000000031F20212000000000
(1693907134.179048) can0 101##4AA05020000000000
(1693907134.179048) can0 101##4AA05020000000000
(1693907134.194059) can0 010##48002005802BE21
(1693907134.194059) can0 010##48002005802BE21
(1693907134.208698) can0 303##49700FF00FFFF01000FFF000FFFFF000000000000
(1693907134.208698) can0 303##49700FF00FFFF01000FFF000FFFFF000000000000
(1693907134.228607) can0 601##4ABDB030E04000000000000031F20212000000000
(1693907134.228607) can0 601##4ABDB030E04000000000000031F20212000000000
(1693907134.228608) can0 101##4AB05020000000000
(1693907134.228608) can0 101##4AB05020000000000
(1693907134.244086) can0 010##481020058020640
(1693907134.244086) can0 010##481020058020640
(1693907134.258661) can0 303##49800FF00FFFF01000FFF000FFFFF000000000000
(1693907134.258661) can0 303##49800FF00FFFF01000FFF000FFFFF000000000000
(1693907134.278651) can0 601##4ACDB030E04000000000000031F20212000000000
(1693907134.278651) can0 601##4ACDB030E04000000000000031F20212000000000
(1693907134.278652) can0 101##4AC05020000000000
(1693907134.278652) can0 101##4AC05020000000000
(1693907134.294484) can0 010##48202005802DEC2
(1693907134.294484) can0 010##48202005802DEC2
(1693907134.308664) can0 303##49900FF00FFFF01000FFF000FFFFF000000000000
(1693907134.308664) can0 303##49900FF00FFFF01000FFF000FFFFF000000000000
(1693907134.328664) can0 601##4ADDB030E04000000000000031F20212000000000
(1693907134.328664) can0 601##4ADDB030E04000000000000031F20212000000000
(1693907134.328666) can0 101##4AD05020000000000
(1693907134.328666) can0 101##4AD05020000000000
(1693907134.344034) can0 010##4830200580266A3
(1693907134.344034) can0 010##4830200580266A3
(1693907134.358710) can0 303##49A00FF00FFFF01000FFF000FFFFF000000000000
(1693907134.358710) can0 303##49A00FF00FFFF01000FFF000FFFFF000000000000
(1693907134.379049) can0 601##4AEDB030E04000000000000031F20212000000000
(1693907134.379049) can0 601##4AEDB030E04000000000000031F20212000000000
(1693907134.379051) can0 101##4AE05020000000000
(1693907134.379051) can0 101##4AE05020000000000
(1693907134.379052) can0 201##4224601
(1693907134.379052) can0 201##4224601
(1693907134.394128) can0 010##484020058027FE7
(1693907134.394128) can0 010##484020058027FE7
(1693907134.408693) can0 303##49B00FF00FFFF01000FFF000FFFFF000000000000
(1693907134.408693) can0 303##49B00FF00FFFF01000FFF000FFFFF000000000000
(1693907134.408694) can0 202##509465FB4455EF800200019000E000001
(1693907134.408694) can0 202##509465FB4455EF800200019000E000001
(1693907134.428632) can0 601##4AFDB030E04000000000000031F20212000000000
(1693907134.428632) can0 601##4AFDB030E04000000000000031F20212000000000
(1693907134.428633) can0 101##4AF05020000000000
(1693907134.428633) can0 101##4AF05020000000000
(1693907134.444241) can0 010##48502005802C786
(1693907134.444241) can0 010##48502005802C786
(1693907134.458913) can0 303##49C00FF00FFFF01000FFF000FFFFF000000000000
(1693907134.458913) can0 303##49C00FF00FFFF01000FFF000FFFFF000000000000
(1693907134.478920) can0 601##4B0DB030E04000000000000031F20212000000000
(1693907134.478920) can0 601##4B0DB030E04000000000000031F20212000000000
(1693907134.478921) can0 101##4B005020000000000
(1693907134.478921) can0 101##4B005020000000000
(1693907134.494541) can0 010##486020058021F04
(1693907134.494541) can0 010##486020058021F04
(1693907134.508664) can0 303##49D00FF00FFFF01000FFF000FFFFF000000000000
(1693907134.508664) can0 303##49D00FF00FFFF01000FFF000FFFFF000000000000
(1693907134.528599) can0 601##4B1DB030E04000000000000031F20212000000000
(1693907134.528599) can0 601##4B1DB030E04000000000000031F20212000000000
(1693907134.528600) can0 101##4B105020000000000
(1693907134.528600) can0 101##4B105020000000000
(1693907134.544061) can0 010##48702005802A765
(1693907134.544061) can0 010##48702005802A765
(1693907134.558640) can0 303##49E00FF00FFFF01000FFF000FFFFF000000000000
(1693907134.558640) can0 303##49E00FF00FFFF01000FFF000FFFFF000000000000
(1693907134.579011) can0 601##4B2DB030E04000000000000031F20212000000000
(1693907134.579011) can0 601##4B2DB030E04000000000000031F20212000000000
(1693907134.579012) can0 101##4B205020000000000
(1693907134.579012) can0 101##4B205020000000000
(1693907134.594085) can0 010##488020058022D8C
(1693907134.594085) can0 010##488020058022D8C
(1693907134.608621) can0 303##49F00FF00FFFF01000FFF000FFFFF000000000000
(1693907134.608621) can0 303##49F00FF00FFFF01000FFF000FFFFF000000000000
(1693907134.628620) can0 601##4B3DB030E04000000000000031F20212000000000
(1693907134.628620) can0 601##4B3DB030E04000000000000031F20212000000000
(1693907134.628621) can0 101##4B305020000000000
(1693907134.628621) can0 101##4B305020000000000
(1693907134.628622) can0 201##4234601
(1693907134.628622) can0 201##4234601
(1693907134.644101) can0 010##4890200580295ED
(1693907134.644101) can0 010##4890200580295ED
(1693907134.658678) can0 303##4A000FF00FFFF01000FFF000FFFFF000000000000
(1693907134.658678) can0 303##4A000FF00FFFF01000FFF000FFFFF000000000000
(1693907134.679028) can0 601##4B4DB030E04000000000000031F20212000000000
(1693907134.679028) can0 601##4B4DB030E04000000000000031F20212000000000
(1693907134.679030) can0 101##4B405020000000000
(1693907134.679030) can0 101##4B405020000000000
(1693907134.694295) can0 010##48A020058024D6F
(1693907134.694295) can0 010##48A020058024D6F
(1693907134.708678) can0 303##4A100FF00FFFF01000FFF000FFFFF000000000000
(1693907134.708678) can0 303##4A100FF00FFFF01000FFF000FFFFF000000000000
(1693907134.728527) can0 601##4B5DB030E04000000000000031F20212000000000
(1693907134.728527) can0 601##4B5DB030E04000000000000031F20212000000000
(1693907134.728528) can0 101##4B505020000000000
(1693907134.728528) can0 101##4B505020000000000
(1693907134.744089) can0 010##48B02005802F50E
(1693907134.744089) can0 010##48B02005802F50E
(1693907134.758853) can0 303##4A200FF00FFFF01000FFF000FFFFF000000000000
(1693907134.758853) can0 303##4A200FF00FFFF01000FFF000FFFFF000000000000
(1693907134.779026) can0 601##4B6DB030E04000000000000031F20212000000000
(1693907134.779026) can0 601##4B6DB030E04000000000000031F20212000000000
(1693907134.779027) can0 101##4B605020000000000
(1693907134.779027) can0 101##4B605020000000000
(1693907134.794529) can0 010##48C02005802EC4A
(1693907134.794529) can0 010##48C02005802EC4A
(1693907134.808611) can0 303##4A300FF00FFFF01000FFF000FFFFF000000000000
(1693907134.808611) can0 303##4A300FF00FFFF01000FFF000FFFFF000000000000
(1693907134.828630) can0 601##4B7DB030E04000000000000031F20212000000000
(1693907134.828630) can0 601##4B7DB030E04000000000000031F20212000000000
(1693907134.828632) can0 101##4B705020000000000
(1693907134.828632) can0 101##4B705020000000000
(1693907134.844263) can0 010##48D02005802542B
(1693907134.844263) can0 010##48D02005802542B
(1693907134.858973) can0 303##4A400FF00FFFF01000FFF000FFFFF000000000000
(1693907134.858973) can0 303##4A400FF00FFFF01000FFF000FFFFF000000000000
(1693907134.878722) can0 601##4B8DB030E04000000000000031F20212000000000
(1693907134.878722) can0 601##4B8DB030E04000000000000031F20212000000000
(1693907134.878723) can0 101##4B805020000000000
(1693907134.878723) can0 101##4B805020000000000
(1693907134.878724) can0 201##4244601
(1693907134.878724) can0 201##4244601
(1693907134.894504) can0 010##48E020058028CA9
(1693907134.894504) can0 010##48E020058028CA9
(1693907134.908675) can0 303##4A500FF00FFFF01000FFF000FFFFF000000000000
(1693907134.908675) can0 303##4A500FF00FFFF01000FFF000FFFFF000000000000
(1693907134.928670) can0 601##4B9DB030E04000000000000031F20212000000000
(1693907134.928670) can0 601##4B9DB030E04000000000000031F20212000000000
(1693907134.928671) can0 101##4B905020000000000
(1693907134.928671) can0 101##4B905020000000000
(1693907134.944046) can0 010##48F0200580234C8
(1693907134.944046) can0 010##48F0200580234C8
(1693907134.958676) can0 303##4A600FF00FFFF01000FFF000FFFFF000000000000
(1693907134.958676) can0 303##4A600FF00FFFF01000FFF000FFFFF000000000000
(1693907134.978902) can0 601##4BADB030E04000000000000031F20212000000000
(1693907134.978902) can0 601##4BADB030E04000000000000031F20212000000000
(1693907134.978903) can0 101##4BA05020000000000
(1693907134.978903) can0 101##4BA05020000000000
(1693907134.994582) can0 010##49002005802895A
(1693907134.994582) can0 010##49002005802895A
(1693907135.008653) can0 303##4A700FF00FFFF01000FFF000FFFFF000000000000
(1693907135.008653) can0 303##4A700FF00FFFF01000FFF000FFFFF000000000000
(1693907135.028589) can0 601##4BBDB030E04000000000000031F20212000000000
(1693907135.028589) can0 601##4BBDB030E04000000000000031F20212000000000
(1693907135.028591) can0 101##4BB05020000000000
(1693907135.028591) can0 101##4BB05020000000000
(1693907135.044010) can0 010##49102005802313B
(1693907135.044010) can0 010##49102005802313B
(1693907135.058660) can0 303##4A800FF00FFFF01000FFF000FFFFF000000000000
(1693907135.058660) can0 303##4A800FF00FFFF01000FFF000FFFFF000000000000
(1693907135.078760) can0 601##4BCDB030E04000000000000031F20212000000000
(1693907135.078760) can0 601##4BCDB030E04000000000000031F20212000000000
(1693907135.078761) can0 101##4BC05020000000000
(1693907135.078761) can0 101##4BC05020000000000
(1693907135.094087) can0 010##49202005802E9B9
(1693907135.094087) can0 010##49202005802E9B9
(1693907135.108600) can0 303##4A900FF00FFFF01000FFF000FFFFF000000000000
(1693907135.108600) can0 303##4A900FF00FFFF01000FFF000FFFFF000000000000
(1693907135.128615) can0 601##4BDDB030E04000000000000031F20212000000000
(1693907135.128615) can0 601##4BDDB030E04000000000000031F20212000000000
(1693907135.128617) can0 101##4BD05020000000000
(1693907135.128617) can0 101##4BD05020000000000
(1693907135.128617) can0 201##4254601
(1693907135.128617) can0 201##4254601
(1693907135.146342) can0 010##4930200580251D8
(1693907135.146342) can0 010##4930200580251D8
(1693907135.158700) can0 303##4AA00FF00FFFF01000FFF000FFFFF000000000000
(1693907135.158700) can0 303##4AA00FF00FFFF01000FFF000FFFFF000000000000
(1693907135.178682) can0 601##4BEDB030E04000000000000031F20212000000000
(1693907135.178682) can0 601##4BEDB030E04000000000000031F20212000000000
(1693907135.178683) can0 101##4BE05020000000000
(1693907135.178683) can0 101##4BE05020000000000
(1693907135.194330) can0 010##49402005802489C
(1693907135.194330) can0 010##49402005802489C
(1693907135.208686) can0 303##4AB00FF00FFFF01000FFF000FFFFF000000000000
(1693907135.208686) can0 303##4AB00FF00FFFF01000FFF000FFFFF000000000000
(1693907135.228691) can0 601##4BFDB030E04000000000000031F20212000000000
(1693907135.228691) can0 601##4BFDB030E04000000000000031F20212000000000
(1693907135.228692) can0 101##4BF05020000000000
(1693907135.228692) can0 101##4BF05020000000000
(1693907135.244156) can0 010##49502005802F0FD
(1693907135.244156) can0 010##49502005802F0FD
(1693907135.258657) can0 303##4AC00FF00FFFF01000FFF000FFFFF000000000000
(1693907135.258657) can0 303##4AC00FF00FFFF01000FFF000FFFFF000000000000
(1693907135.278677) can0 601##4C0DB030E04000000000000031F20212000000000
(1693907135.278677) can0 601##4C0DB030E04000000000000031F20212000000000
(1693907135.278679) can0 101##4C005020000000000
(1693907135.278679) can0 101##4C005020000000000
(1693907135.294329) can0 010##49602005802287F
(1693907135.294329) can0 010##49602005802287F
(1693907135.308608) can0 303##4AD00FF00FFFF01000FFF000FFFFF000000000000
(1693907135.308608) can0 303##4AD00FF00FFFF01000FFF000FFFFF000000000000
(1693907135.328632) can0 601##4C1DB030E04000000000000031F20212000000000
(1693907135.328632) can0 601##4C1DB030E04000000000000031F20212000000000
(1693907135.328633) can0 101##4C105020000000000
(1693907135.328633) can0 101##4C105020000000000
(1693907135.344126) can0 010##49702005802901E
(1693907135.344126) can0 010##49702005802901E
(1693907135.358904) can0 303##4AE00FF00FFFF01000FFF000FFFFF000000000000
(1693907135.358904) can0 303##4AE00FF00FFFF01000FFF000FFFFF000000000000
(1693907135.378729) can0 601##4C2DB030E04000000000000031F20212000000000
(1693907135.378729) can0 601##4C2DB030E04000000000000031F20212000000000
(1693907135.378731) can0 101##4C205020000000000
(1693907135.378731) can0 101##4C205020000000000
(1693907135.378732) can0 201##4264601
(1693907135.378732) can0 201##4264601
(1693907135.394200) can0 010##498020058021AF7
(1693907135.394200) can0 010##498020058021AF7
(1693907135.408658) can0 303##4AF00FF00FFFF01000FFF000FFFFF000000000000
(1693907135.408658) can0 303##4AF00FF00FFFF01000FFF000FFFFF000000000000
(1693907135.408659) can0 202##50A465FB4455F7C001F0019000E000000
(1693907135.408659) can0 202##50A465FB4455F7C001F0019000E000000
(1693907135.428687) can0 601##4C3DB030E04000000000000031F20212000000000
(1693907135.428687) can0 601##4C3DB030E04000000000000031F20212000000000
(1693907135.428689) can0 101##4C305020000000000
(1693907135.428689) can0 101##4C305020000000000
(1693907135.444202) can0 010##49902005802A296
(1693907135.444202) can0 010##49902005802A296
(1693907135.458696) can0 303##4B000FF00FFFF01000FFF000FFFFF000000000000
(1693907135.458696) can0 303##4B000FF00FFFF01000FFF000FFFFF000000000000
(1693907135.479041) can0 601##4C4DB030E04000000000000031F20212000000000
(1693907135.479041) can0 601##4C4DB030E04000000000000031F20212000000000
(1693907135.479042) can0 101##4C405020000000000
(1693907135.479042) can0 101##4C405020000000000
(1693907135.494618) can0 010##49A020058027A14
(1693907135.494618) can0 010##49A020058027A14
(1693907135.508681) can0 303##4B100FF00FFFF01000FFF000FFFFF000000000000
(1693907135.508681) can0 303##4B100FF00FFFF01000FFF000FFFFF000000000000
(1693907135.528687) can0 601##4C5DB030E04000000000000031F20212000000000
(1693907135.528687) can0 601##4C5DB030E04000000000000031F20212000000000
(1693907135.528688) can0 101##4C505020000000000
(1693907135.528688) can0 101##4C505020000000000
(1693907135.544215) can0 010##49B02005802C275
(1693907135.544215) can0 010##49B02005802C275
(1693907135.558700) can0 303##4B200FF00FFFF01000FFF000FFFFF000000000000
(1693907135.558700) can0 303##4B200FF00FFFF01000FFF000FFFFF000000000000
(1693907135.579054) can0 601##4C6DB030E04000000000000031F20212000000000
(1693907135.579054) can0 601##4C6DB030E04000000000000031F20212000000000
(1693907135.579055) can0 101##4C605020000000000
(1693907135.579055) can0 101##4C605020000000000
(1693907135.594800) can0 010##49C02005802DB31
(1693907135.594800) can0 010##49C02005802DB31
(1693907135.608580) can0 303##4B300FF00FFFF01000FFF000FFFFF000000000000
(1693907135.608580) can0 303##4B300FF00FFFF01000FFF000FFFFF000000000000
(1693907135.628723) can0 601##4C7DB030E04000000000000031F20212000000000
(1693907135.628723) can0 601##4C7DB030E04000000000000031F20212000000000
(1693907135.628724) can0 101##4C705020000000000
(1693907135.628724) can0 101##4C705020000000000
(1693907135.628725) can0 201##4274601
(1693907135.628725) can0 201##4274601
(1693907135.644603) can0 010##49D020058026350
(1693907135.644603) can0 010##49D020058026350
(1693907135.658616) can0 303##4B400FF00FFFF01000FFF000FFFFF000000000000
(1693907135.658616) can0 303##4B400FF00FFFF01000FFF000FFFFF000000000000
(1693907135.679042) can0 601##4C8DB030E04000000000000031F20212000000000
(1693907135.679042) can0 601##4C8DB030E04000000000000031F20212000000000
(1693907135.679043) can0 101##4C805020000000000
(1693907135.679043) can0 101##4C805020000000000
(1693907135.694169) can0 010##49E02005802BBD2
(1693907135.694169) can0 010##49E02005802BBD2
(1693907135.708666) can0 303##4B500FF00FFFF01000FFF000FFFFF000000000000
(1693907135.708666) can0 303##4B500FF00FFFF01000FFF000FFFFF000000000000
(1693907135.728695) can0 601##4C9DB030E04000000000000031F20212000000000
(1693907135.728695) can0 601##4C9DB030E04000000000000031F20212000000000
(1693907135.728697) can0 101##4C905020000000000
(1693907135.728697) can0 101##4C905020000000000
(1693907135.743908) can0 010##49F0200580203B3
(1693907135.743908) can0 010##49F0200580203B3
(1693907135.758652) can0 303##4B600FF00FFFF01000FFF000FFFFF000000000000
(1693907135.758652) can0 303##4B600FF00FFFF01000FFF000FFFFF000000000000
(1693907135.778740) can0 601##4CADB030E04000000000000031F20212000000000
(1693907135.778740) can0 601##4CADB030E04000000000000031F20212000000000
(1693907135.778742) can0 101##4CA05020000000000
(1693907135.778742) can0 101##4CA05020000000000
(1693907135.794139) can0 010##4A002005802D0D7
(1693907135.794139) can0 010##4A002005802D0D7
(1693907135.808708) can0 303##4B700FF00FFFF01000FFF000FFFFF000000000000
(1693907135.808708) can0 303##4B700FF00FFFF01000FFF000FFFFF000000000000
(1693907135.828705) can0 601##4CBDB030E04000000000000031F20212000000000
(1693907135.828705) can0 601##4CBDB030E04000000000000031F20212000000000
(1693907135.828706) can0 101##4CB05020000000000
(1693907135.828706) can0 101##4CB05020000000000
